# vsim -c tb_top -do "run -all; quit -f" 
# Start time: 08:05:57 on May 21,2026
# ** Note: (vsim-8009) Loading existing optimized design _opt
# //  Questa Sim-64
# //  Version 10.6b linux_x86_64 May 25 2017
# //
# //  Copyright 1991-2017 Mentor Graphics Corporation
# //  All Rights Reserved.
# //
# //  QuestaSim and its associated documentation contain trade
# //  secrets and commercial or financial information that are the property of
# //  Mentor Graphics Corporation and are privileged, confidential,
# //  and exempt from disclosure under the Freedom of Information Act,
# //  5 U.S.C. Section 552. Furthermore, this information
# //  is prohibited from disclosure under the Trade Secrets Act,
# //  18 U.S.C. Section 1905.
# //
# Loading sv_std.std
# Loading work.apb_if(fast)
# Loading mtiUvm.uvm_pkg
# Loading work.apb_pkg(fast)
# Loading work.apb_if_sv_unit(fast)
# Loading work.tb_top(fast)
# Loading work.apb_if(fast)
# Loading work.apb_sram(fast)
# Loading mtiUvm.questa_uvm_pkg(fast)
# Loading /cadtools/mentor/Questa_10.6b/questasim/uvm-1.1d/linux_x86_64/uvm_dpi.so
# run -all
# ----------------------------------------------------------------
# UVM-1.1d
# (C) 2007-2013 Mentor Graphics Corporation
# (C) 2007-2013 Cadence Design Systems, Inc.
# (C) 2006-2013 Synopsys, Inc.
# (C) 2011-2013 Cypress Semiconductor Corp.
# ----------------------------------------------------------------
# 
#   ***********       IMPORTANT RELEASE NOTES         ************
# 
#   You are using a version of the UVM library that has been compiled
#   with `UVM_NO_DEPRECATED undefined.
#   See http://www.eda.org/svdb/view.php?id=3313 for more details.
# 
#   You are using a version of the UVM library that has been compiled
#   with `UVM_OBJECT_MUST_HAVE_CONSTRUCTOR undefined.
#   See http://www.eda.org/svdb/view.php?id=3770 for more details.
# 
#       (Specify +UVM_NO_RELNOTES to turn off this notice)
# 
# UVM_INFO verilog_src/questa_uvm_pkg-1.2/src/questa_uvm_pkg.sv(215) @ 0: reporter [Questa UVM] QUESTA_UVM-1.2.3
# UVM_INFO verilog_src/questa_uvm_pkg-1.2/src/questa_uvm_pkg.sv(217) @ 0: reporter [Questa UVM]  questa_uvm::init(+struct)
# UVM_INFO ../tb/tb_top.sv(48) @ 0: reporter [TB_TOP] Starting APB UVM Testbench
# UVM_INFO @ 0: reporter [RNTST] Running test apb_base_test...
# UVM_INFO ../test/apb_base_test.sv(34) @ 0: uvm_test_top [apb_base_test] Build phase completed
# UVM_INFO ../env/apb_env.sv(26) @ 0: uvm_test_top.env [apb_env] Build phase completed
# UVM_INFO ../env/apb_agent/apb_agent.sv(43) @ 0: uvm_test_top.env.agent [AGT] No is_active config, defaulting to UVM_ACTIVE
# UVM_INFO ../env/apb_env.sv(35) @ 0: uvm_test_top.env [apb_env] Connect phase completed - Monitor connected to Scoreboard & Coverage
# UVM_INFO ../env/apb_agent/apb_agent.sv(72) @ 0: uvm_test_top.env.agent [apb_agent] Agent Mode:  ACTIVE
# UVM_INFO ../test/apb_base_test.sv(41) @ 0: uvm_test_top [apb_base_test] ==============START APB TEST =================
# UVM_INFO ../env/apb_agent/apb_monitor.sv(23) @ 35000: uvm_test_top.env.agent.monitor [apb_monitor] Monitor started after reset
# UVM_INFO ../env/apb_agent/apb_monitor.sv(71) @ 135000: uvm_test_top.env.agent.monitor [apb_monitor] Collected: T#0 | UNKNOWN_SEQ | ADDR=0x000004b4 WRITE=1 DATA=0x339f0009 RDATA=0xdeadbeef SLVERR=1 | WAIT=7 cycles
# UVM_WARNING ../env/apb_scoreboard.sv(51) @ 135000: uvm_test_top.env.scoreboard [apb_scoreboard] T#1 [SLVERR] ADDR=0x000004b4
# UVM_INFO ../seq/apb_write_seq.sv(34) @ 135000: uvm_test_top.env.agent.sequencer@@write_seq [apb_write_seq] TASK WRITE: Sent Write: ADDR = 0x000004b4, DATA = 0x339f0009
# UVM_INFO ../env/apb_agent/apb_monitor.sv(71) @ 175000: uvm_test_top.env.agent.monitor [apb_monitor] Collected: T#0 | UNKNOWN_SEQ | ADDR=0x000004f0 WRITE=1 DATA=0x75a75a7f RDATA=0xdeadbeef SLVERR=1 | WAIT=0 cycles
# UVM_WARNING ../env/apb_scoreboard.sv(51) @ 175000: uvm_test_top.env.scoreboard [apb_scoreboard] T#2 [SLVERR] ADDR=0x000004f0
# UVM_INFO ../seq/apb_write_seq.sv(34) @ 175000: uvm_test_top.env.agent.sequencer@@write_seq [apb_write_seq] TASK WRITE: Sent Write: ADDR = 0x000004f0, DATA = 0x75a75a7f
# UVM_INFO ../env/apb_agent/apb_monitor.sv(71) @ 215000: uvm_test_top.env.agent.monitor [apb_monitor] Collected: T#0 | UNKNOWN_SEQ | ADDR=0x0000005c WRITE=1 DATA=0x444da393 RDATA=0xdeadbeef SLVERR=0 | WAIT=0 cycles
# UVM_INFO ../seq/apb_write_seq.sv(34) @ 215000: uvm_test_top.env.agent.sequencer@@write_seq [apb_write_seq] TASK WRITE: Sent Write: ADDR = 0x0000005c, DATA = 0x444da393
# UVM_INFO ../env/apb_agent/apb_monitor.sv(71) @ 325000: uvm_test_top.env.agent.monitor [apb_monitor] Collected: T#0 | UNKNOWN_SEQ | ADDR=0x000001c4 WRITE=1 DATA=0xe81fe2f0 RDATA=0xdeadbeef SLVERR=0 | WAIT=7 cycles
# UVM_INFO ../seq/apb_write_seq.sv(34) @ 325000: uvm_test_top.env.agent.sequencer@@write_seq [apb_write_seq] TASK WRITE: Sent Write: ADDR = 0x000001c4, DATA = 0xe81fe2f0
# UVM_INFO ../env/apb_agent/apb_monitor.sv(71) @ 425000: uvm_test_top.env.agent.monitor [apb_monitor] Collected: T#0 | UNKNOWN_SEQ | ADDR=0x00000080 WRITE=1 DATA=0xd2302f95 RDATA=0xdeadbeef SLVERR=0 | WAIT=6 cycles
# UVM_INFO ../seq/apb_write_seq.sv(34) @ 425000: uvm_test_top.env.agent.sequencer@@write_seq [apb_write_seq] TASK WRITE: Sent Write: ADDR = 0x00000080, DATA = 0xd2302f95
# UVM_INFO ../env/apb_agent/apb_monitor.sv(71) @ 485000: uvm_test_top.env.agent.monitor [apb_monitor] Collected: T#0 | UNKNOWN_SEQ | ADDR=0x000002c8 WRITE=1 DATA=0xde63b8e2 RDATA=0xdeadbeef SLVERR=0 | WAIT=2 cycles
# UVM_INFO ../seq/apb_write_seq.sv(34) @ 485000: uvm_test_top.env.agent.sequencer@@write_seq [apb_write_seq] TASK WRITE: Sent Write: ADDR = 0x000002c8, DATA = 0xde63b8e2
# UVM_INFO ../env/apb_agent/apb_monitor.sv(71) @ 535000: uvm_test_top.env.agent.monitor [apb_monitor] Collected: T#0 | UNKNOWN_SEQ | ADDR=0x0000040c WRITE=1 DATA=0x489475be RDATA=0xdeadbeef SLVERR=1 | WAIT=1 cycles
# UVM_WARNING ../env/apb_scoreboard.sv(51) @ 535000: uvm_test_top.env.scoreboard [apb_scoreboard] T#7 [SLVERR] ADDR=0x0000040c
# UVM_INFO ../seq/apb_write_seq.sv(34) @ 535000: uvm_test_top.env.agent.sequencer@@write_seq [apb_write_seq] TASK WRITE: Sent Write: ADDR = 0x0000040c, DATA = 0x489475be
# UVM_INFO ../env/apb_agent/apb_monitor.sv(71) @ 615000: uvm_test_top.env.agent.monitor [apb_monitor] Collected: T#0 | UNKNOWN_SEQ | ADDR=0x00000350 WRITE=1 DATA=0x6308461d RDATA=0xdeadbeef SLVERR=0 | WAIT=4 cycles
# UVM_INFO ../seq/apb_write_seq.sv(34) @ 615000: uvm_test_top.env.agent.sequencer@@write_seq [apb_write_seq] TASK WRITE: Sent Write: ADDR = 0x00000350, DATA = 0x6308461d
# UVM_INFO ../env/apb_agent/apb_monitor.sv(71) @ 685000: uvm_test_top.env.agent.monitor [apb_monitor] Collected: T#0 | UNKNOWN_SEQ | ADDR=0x000000e4 WRITE=1 DATA=0x49709113 RDATA=0xdeadbeef SLVERR=0 | WAIT=3 cycles
# UVM_INFO ../seq/apb_write_seq.sv(34) @ 685000: uvm_test_top.env.agent.sequencer@@write_seq [apb_write_seq] TASK WRITE: Sent Write: ADDR = 0x000000e4, DATA = 0x49709113
# UVM_INFO ../env/apb_agent/apb_monitor.sv(71) @ 725000: uvm_test_top.env.agent.monitor [apb_monitor] Collected: T#0 | UNKNOWN_SEQ | ADDR=0x000001a8 WRITE=1 DATA=0xeb7683bb RDATA=0xdeadbeef SLVERR=0 | WAIT=0 cycles
# UVM_INFO ../seq/apb_write_seq.sv(34) @ 725000: uvm_test_top.env.agent.sequencer@@write_seq [apb_write_seq] TASK WRITE: Sent Write: ADDR = 0x000001a8, DATA = 0xeb7683bb
# UVM_INFO ../env/apb_agent/apb_monitor.sv(71) @ 785000: uvm_test_top.env.agent.monitor [apb_monitor] Collected: T#0 | UNKNOWN_SEQ | ADDR=0x00000300 WRITE=1 DATA=0xb909731c RDATA=0xdeadbeef SLVERR=0 | WAIT=2 cycles
# UVM_INFO ../seq/apb_write_seq.sv(34) @ 785000: uvm_test_top.env.agent.sequencer@@write_seq [apb_write_seq] TASK WRITE: Sent Write: ADDR = 0x00000300, DATA = 0xb909731c
# UVM_INFO ../env/apb_agent/apb_monitor.sv(71) @ 845000: uvm_test_top.env.agent.monitor [apb_monitor] Collected: T#0 | UNKNOWN_SEQ | ADDR=0x000003f0 WRITE=1 DATA=0x47c0ca67 RDATA=0xdeadbeef SLVERR=0 | WAIT=2 cycles
# UVM_INFO ../seq/apb_write_seq.sv(34) @ 845000: uvm_test_top.env.agent.sequencer@@write_seq [apb_write_seq] TASK WRITE: Sent Write: ADDR = 0x000003f0, DATA = 0x47c0ca67
# UVM_INFO ../env/apb_agent/apb_monitor.sv(71) @ 905000: uvm_test_top.env.agent.monitor [apb_monitor] Collected: T#0 | UNKNOWN_SEQ | ADDR=0x000004f0 WRITE=1 DATA=0xa42408e4 RDATA=0xdeadbeef SLVERR=1 | WAIT=2 cycles
# UVM_WARNING ../env/apb_scoreboard.sv(51) @ 905000: uvm_test_top.env.scoreboard [apb_scoreboard] T#13 [SLVERR] ADDR=0x000004f0
# UVM_INFO ../seq/apb_write_seq.sv(34) @ 905000: uvm_test_top.env.agent.sequencer@@write_seq [apb_write_seq] TASK WRITE: Sent Write: ADDR = 0x000004f0, DATA = 0xa42408e4
# UVM_INFO ../env/apb_agent/apb_monitor.sv(71) @ 955000: uvm_test_top.env.agent.monitor [apb_monitor] Collected: T#0 | UNKNOWN_SEQ | ADDR=0x000001c4 WRITE=1 DATA=0x86fbff3b RDATA=0xdeadbeef SLVERR=0 | WAIT=1 cycles
# UVM_INFO ../seq/apb_write_seq.sv(34) @ 955000: uvm_test_top.env.agent.sequencer@@write_seq [apb_write_seq] TASK WRITE: Sent Write: ADDR = 0x000001c4, DATA = 0x86fbff3b
# UVM_INFO ../env/apb_agent/apb_monitor.sv(71) @ 995000: uvm_test_top.env.agent.monitor [apb_monitor] Collected: T#0 | UNKNOWN_SEQ | ADDR=0x00000034 WRITE=1 DATA=0x206e6267 RDATA=0xdeadbeef SLVERR=0 | WAIT=0 cycles
# UVM_INFO ../seq/apb_write_seq.sv(34) @ 995000: uvm_test_top.env.agent.sequencer@@write_seq [apb_write_seq] TASK WRITE: Sent Write: ADDR = 0x00000034, DATA = 0x206e6267
# UVM_INFO ../env/apb_agent/apb_monitor.sv(71) @ 1085000: uvm_test_top.env.agent.monitor [apb_monitor] Collected: T#0 | UNKNOWN_SEQ | ADDR=0x000002f0 WRITE=1 DATA=0xc2d15aac RDATA=0xdeadbeef SLVERR=0 | WAIT=5 cycles
# UVM_INFO ../seq/apb_write_seq.sv(34) @ 1085000: uvm_test_top.env.agent.sequencer@@write_seq [apb_write_seq] TASK WRITE: Sent Write: ADDR = 0x000002f0, DATA = 0xc2d15aac
# UVM_INFO ../env/apb_agent/apb_monitor.sv(71) @ 1125000: uvm_test_top.env.agent.monitor [apb_monitor] Collected: T#0 | UNKNOWN_SEQ | ADDR=0x000000f0 WRITE=0 DATA=0x00000000 RDATA=0x00000000 SLVERR=0 | WAIT=0 cycles
# UVM_INFO ../env/apb_scoreboard.sv(73) @ 1125000: uvm_test_top.env.scoreboard [apb_scoreboard] T#17 [READ PASS] ADDR=0x000000f0 RDATA=0x00000000
# UVM_INFO ../seq/apb_read_seq.sv(38) @ 1125000: uvm_test_top.env.agent.sequencer@@read_seq [apb_read_seq] TASK READ DATA : Sent Read: ADDR=0x000000f0
# UVM_INFO ../env/apb_agent/apb_monitor.sv(71) @ 1215000: uvm_test_top.env.agent.monitor [apb_monitor] Collected: T#0 | UNKNOWN_SEQ | ADDR=0x000004d4 WRITE=0 DATA=0xdeadbeef RDATA=0xdeadbeef SLVERR=1 | WAIT=5 cycles
# UVM_WARNING ../env/apb_scoreboard.sv(51) @ 1215000: uvm_test_top.env.scoreboard [apb_scoreboard] T#18 [SLVERR] ADDR=0x000004d4
# UVM_INFO ../seq/apb_read_seq.sv(38) @ 1215000: uvm_test_top.env.agent.sequencer@@read_seq [apb_read_seq] TASK READ DATA : Sent Read: ADDR=0x000004d4
# UVM_INFO ../env/apb_agent/apb_monitor.sv(71) @ 1285000: uvm_test_top.env.agent.monitor [apb_monitor] Collected: T#0 | UNKNOWN_SEQ | ADDR=0x00000040 WRITE=0 DATA=0x00000000 RDATA=0x00000000 SLVERR=0 | WAIT=3 cycles
# UVM_INFO ../env/apb_scoreboard.sv(73) @ 1285000: uvm_test_top.env.scoreboard [apb_scoreboard] T#19 [READ PASS] ADDR=0x00000040 RDATA=0x00000000
# UVM_INFO ../seq/apb_read_seq.sv(38) @ 1285000: uvm_test_top.env.agent.sequencer@@read_seq [apb_read_seq] TASK READ DATA : Sent Read: ADDR=0x00000040
# UVM_INFO ../env/apb_agent/apb_monitor.sv(71) @ 1365000: uvm_test_top.env.agent.monitor [apb_monitor] Collected: T#0 | UNKNOWN_SEQ | ADDR=0x00000328 WRITE=0 DATA=0x00000000 RDATA=0x00000000 SLVERR=0 | WAIT=4 cycles
# UVM_INFO ../env/apb_scoreboard.sv(73) @ 1365000: uvm_test_top.env.scoreboard [apb_scoreboard] T#20 [READ PASS] ADDR=0x00000328 RDATA=0x00000000
# UVM_INFO ../seq/apb_read_seq.sv(38) @ 1365000: uvm_test_top.env.agent.sequencer@@read_seq [apb_read_seq] TASK READ DATA : Sent Read: ADDR=0x00000328
# UVM_INFO ../env/apb_agent/apb_monitor.sv(71) @ 1415000: uvm_test_top.env.agent.monitor [apb_monitor] Collected: T#0 | UNKNOWN_SEQ | ADDR=0x00000494 WRITE=0 DATA=0xdeadbeef RDATA=0xdeadbeef SLVERR=1 | WAIT=1 cycles
# UVM_WARNING ../env/apb_scoreboard.sv(51) @ 1415000: uvm_test_top.env.scoreboard [apb_scoreboard] T#21 [SLVERR] ADDR=0x00000494
# UVM_INFO ../seq/apb_read_seq.sv(38) @ 1415000: uvm_test_top.env.agent.sequencer@@read_seq [apb_read_seq] TASK READ DATA : Sent Read: ADDR=0x00000494
# UVM_INFO ../env/apb_agent/apb_monitor.sv(71) @ 1455000: uvm_test_top.env.agent.monitor [apb_monitor] Collected: T#0 | UNKNOWN_SEQ | ADDR=0x00000428 WRITE=0 DATA=0xdeadbeef RDATA=0xdeadbeef SLVERR=1 | WAIT=0 cycles
# UVM_WARNING ../env/apb_scoreboard.sv(51) @ 1455000: uvm_test_top.env.scoreboard [apb_scoreboard] T#22 [SLVERR] ADDR=0x00000428
# UVM_INFO ../seq/apb_read_seq.sv(38) @ 1455000: uvm_test_top.env.agent.sequencer@@read_seq [apb_read_seq] TASK READ DATA : Sent Read: ADDR=0x00000428
# UVM_INFO ../env/apb_agent/apb_monitor.sv(71) @ 1505000: uvm_test_top.env.agent.monitor [apb_monitor] Collected: T#0 | UNKNOWN_SEQ | ADDR=0x0000033c WRITE=0 DATA=0x00000000 RDATA=0x00000000 SLVERR=0 | WAIT=1 cycles
# UVM_INFO ../env/apb_scoreboard.sv(73) @ 1505000: uvm_test_top.env.scoreboard [apb_scoreboard] T#23 [READ PASS] ADDR=0x0000033c RDATA=0x00000000
# UVM_INFO ../seq/apb_read_seq.sv(38) @ 1505000: uvm_test_top.env.agent.sequencer@@read_seq [apb_read_seq] TASK READ DATA : Sent Read: ADDR=0x0000033c
# UVM_INFO ../env/apb_agent/apb_monitor.sv(71) @ 1595000: uvm_test_top.env.agent.monitor [apb_monitor] Collected: T#0 | UNKNOWN_SEQ | ADDR=0x00000050 WRITE=0 DATA=0x00000000 RDATA=0x00000000 SLVERR=0 | WAIT=5 cycles
# UVM_INFO ../env/apb_scoreboard.sv(73) @ 1595000: uvm_test_top.env.scoreboard [apb_scoreboard] T#24 [READ PASS] ADDR=0x00000050 RDATA=0x00000000
# UVM_INFO ../seq/apb_read_seq.sv(38) @ 1595000: uvm_test_top.env.agent.sequencer@@read_seq [apb_read_seq] TASK READ DATA : Sent Read: ADDR=0x00000050
# UVM_INFO ../env/apb_agent/apb_monitor.sv(71) @ 1635000: uvm_test_top.env.agent.monitor [apb_monitor] Collected: T#0 | UNKNOWN_SEQ | ADDR=0x0000016c WRITE=0 DATA=0x00000000 RDATA=0x00000000 SLVERR=0 | WAIT=0 cycles
# UVM_INFO ../env/apb_scoreboard.sv(73) @ 1635000: uvm_test_top.env.scoreboard [apb_scoreboard] T#25 [READ PASS] ADDR=0x0000016c RDATA=0x00000000
# UVM_INFO ../seq/apb_read_seq.sv(38) @ 1635000: uvm_test_top.env.agent.sequencer@@read_seq [apb_read_seq] TASK READ DATA : Sent Read: ADDR=0x0000016c
# UVM_INFO ../env/apb_agent/apb_monitor.sv(71) @ 1695000: uvm_test_top.env.agent.monitor [apb_monitor] Collected: T#0 | UNKNOWN_SEQ | ADDR=0x00000410 WRITE=0 DATA=0xdeadbeef RDATA=0xdeadbeef SLVERR=1 | WAIT=2 cycles
# UVM_WARNING ../env/apb_scoreboard.sv(51) @ 1695000: uvm_test_top.env.scoreboard [apb_scoreboard] T#26 [SLVERR] ADDR=0x00000410
# UVM_INFO ../seq/apb_read_seq.sv(38) @ 1695000: uvm_test_top.env.agent.sequencer@@read_seq [apb_read_seq] TASK READ DATA : Sent Read: ADDR=0x00000410
# UVM_INFO ../env/apb_agent/apb_monitor.sv(71) @ 1735000: uvm_test_top.env.agent.monitor [apb_monitor] Collected: T#0 | UNKNOWN_SEQ | ADDR=0x00000238 WRITE=0 DATA=0x00000000 RDATA=0x00000000 SLVERR=0 | WAIT=0 cycles
# UVM_INFO ../env/apb_scoreboard.sv(73) @ 1735000: uvm_test_top.env.scoreboard [apb_scoreboard] T#27 [READ PASS] ADDR=0x00000238 RDATA=0x00000000
# UVM_INFO ../seq/apb_read_seq.sv(38) @ 1735000: uvm_test_top.env.agent.sequencer@@read_seq [apb_read_seq] TASK READ DATA : Sent Read: ADDR=0x00000238
# UVM_INFO ../env/apb_agent/apb_monitor.sv(71) @ 1785000: uvm_test_top.env.agent.monitor [apb_monitor] Collected: T#0 | UNKNOWN_SEQ | ADDR=0x0000034c WRITE=0 DATA=0x00000000 RDATA=0x00000000 SLVERR=0 | WAIT=1 cycles
# UVM_INFO ../env/apb_scoreboard.sv(73) @ 1785000: uvm_test_top.env.scoreboard [apb_scoreboard] T#28 [READ PASS] ADDR=0x0000034c RDATA=0x00000000
# UVM_INFO ../seq/apb_read_seq.sv(38) @ 1785000: uvm_test_top.env.agent.sequencer@@read_seq [apb_read_seq] TASK READ DATA : Sent Read: ADDR=0x0000034c
# UVM_INFO ../env/apb_agent/apb_monitor.sv(71) @ 1875000: uvm_test_top.env.agent.monitor [apb_monitor] Collected: T#0 | UNKNOWN_SEQ | ADDR=0x00000020 WRITE=0 DATA=0x00000000 RDATA=0x00000000 SLVERR=0 | WAIT=5 cycles
# UVM_INFO ../env/apb_scoreboard.sv(73) @ 1875000: uvm_test_top.env.scoreboard [apb_scoreboard] T#29 [READ PASS] ADDR=0x00000020 RDATA=0x00000000
# UVM_INFO ../seq/apb_read_seq.sv(38) @ 1875000: uvm_test_top.env.agent.sequencer@@read_seq [apb_read_seq] TASK READ DATA : Sent Read: ADDR=0x00000020
# UVM_INFO ../env/apb_agent/apb_monitor.sv(71) @ 1985000: uvm_test_top.env.agent.monitor [apb_monitor] Collected: T#0 | UNKNOWN_SEQ | ADDR=0x000000fc WRITE=0 DATA=0x00000000 RDATA=0x00000000 SLVERR=0 | WAIT=7 cycles
# UVM_INFO ../env/apb_scoreboard.sv(73) @ 1985000: uvm_test_top.env.scoreboard [apb_scoreboard] T#30 [READ PASS] ADDR=0x000000fc RDATA=0x00000000
# UVM_INFO ../seq/apb_read_seq.sv(38) @ 1985000: uvm_test_top.env.agent.sequencer@@read_seq [apb_read_seq] TASK READ DATA : Sent Read: ADDR=0x000000fc
# UVM_INFO ../env/apb_agent/apb_monitor.sv(71) @ 2055000: uvm_test_top.env.agent.monitor [apb_monitor] Collected: T#0 | UNKNOWN_SEQ | ADDR=0x000004e0 WRITE=0 DATA=0xdeadbeef RDATA=0xdeadbeef SLVERR=1 | WAIT=3 cycles
# UVM_WARNING ../env/apb_scoreboard.sv(51) @ 2055000: uvm_test_top.env.scoreboard [apb_scoreboard] T#31 [SLVERR] ADDR=0x000004e0
# UVM_INFO ../seq/apb_read_seq.sv(38) @ 2055000: uvm_test_top.env.agent.sequencer@@read_seq [apb_read_seq] TASK READ DATA : Sent Read: ADDR=0x000004e0
# UVM_INFO ../env/apb_agent/apb_monitor.sv(71) @ 2135000: uvm_test_top.env.agent.monitor [apb_monitor] Collected: T#0 | UNKNOWN_SEQ | ADDR=0x00000254 WRITE=0 DATA=0x00000000 RDATA=0x00000000 SLVERR=0 | WAIT=4 cycles
# UVM_INFO ../env/apb_scoreboard.sv(73) @ 2135000: uvm_test_top.env.scoreboard [apb_scoreboard] T#32 [READ PASS] ADDR=0x00000254 RDATA=0x00000000
# UVM_INFO ../seq/apb_read_seq.sv(38) @ 2135000: uvm_test_top.env.agent.sequencer@@read_seq [apb_read_seq] TASK READ DATA : Sent Read: ADDR=0x00000254
# UVM_INFO ../env/apb_agent/apb_monitor.sv(71) @ 2175000: uvm_test_top.env.agent.monitor [apb_monitor] Collected: T#0 | UNKNOWN_SEQ | ADDR=0x00000140 WRITE=1 DATA=0xfbe926df RDATA=0x00000000 SLVERR=0 | WAIT=0 cycles
# UVM_INFO ../seq/apb_wr_rd_seq.sv(41) @ 2175000: uvm_test_top.env.agent.sequencer@@wr_rd_seq [apb_wr_rd_seq] WRITE: ADDR=0x00000140 DATA=0xfbe926df
# UVM_INFO ../env/apb_agent/apb_monitor.sv(71) @ 2275000: uvm_test_top.env.agent.monitor [apb_monitor] Collected: T#0 | UNKNOWN_SEQ | ADDR=0x00000140 WRITE=0 DATA=0xfbe926df RDATA=0xfbe926df SLVERR=0 | WAIT=6 cycles
# UVM_INFO ../env/apb_scoreboard.sv(73) @ 2275000: uvm_test_top.env.scoreboard [apb_scoreboard] T#34 [READ PASS] ADDR=0x00000140 RDATA=0xfbe926df
# UVM_INFO ../seq/apb_wr_rd_seq.sv(56) @ 2275000: uvm_test_top.env.agent.sequencer@@wr_rd_seq [apb_wr_rd_seq] READ : ADDR=0x00000140 RDATA=0xfbe926df
# UVM_INFO ../env/apb_agent/apb_monitor.sv(71) @ 2365000: uvm_test_top.env.agent.monitor [apb_monitor] Collected: T#0 | UNKNOWN_SEQ | ADDR=0x00000184 WRITE=1 DATA=0x1ece0459 RDATA=0xfbe926df SLVERR=0 | WAIT=5 cycles
# UVM_INFO ../seq/apb_wr_rd_seq.sv(41) @ 2365000: uvm_test_top.env.agent.sequencer@@wr_rd_seq [apb_wr_rd_seq] WRITE: ADDR=0x00000184 DATA=0x1ece0459
# UVM_INFO ../env/apb_agent/apb_monitor.sv(71) @ 2405000: uvm_test_top.env.agent.monitor [apb_monitor] Collected: T#0 | UNKNOWN_SEQ | ADDR=0x00000184 WRITE=0 DATA=0x1ece0459 RDATA=0x1ece0459 SLVERR=0 | WAIT=0 cycles
# UVM_INFO ../env/apb_scoreboard.sv(73) @ 2405000: uvm_test_top.env.scoreboard [apb_scoreboard] T#36 [READ PASS] ADDR=0x00000184 RDATA=0x1ece0459
# UVM_INFO ../seq/apb_wr_rd_seq.sv(56) @ 2405000: uvm_test_top.env.agent.sequencer@@wr_rd_seq [apb_wr_rd_seq] READ : ADDR=0x00000184 RDATA=0x1ece0459
# UVM_INFO ../env/apb_agent/apb_monitor.sv(71) @ 2485000: uvm_test_top.env.agent.monitor [apb_monitor] Collected: T#0 | UNKNOWN_SEQ | ADDR=0x00000324 WRITE=1 DATA=0x1a9e77fa RDATA=0x1ece0459 SLVERR=0 | WAIT=4 cycles
# UVM_INFO ../seq/apb_wr_rd_seq.sv(41) @ 2485000: uvm_test_top.env.agent.sequencer@@wr_rd_seq [apb_wr_rd_seq] WRITE: ADDR=0x00000324 DATA=0x1a9e77fa
# UVM_INFO ../env/apb_agent/apb_monitor.sv(71) @ 2565000: uvm_test_top.env.agent.monitor [apb_monitor] Collected: T#0 | UNKNOWN_SEQ | ADDR=0x00000324 WRITE=0 DATA=0x1a9e77fa RDATA=0x1a9e77fa SLVERR=0 | WAIT=4 cycles
# UVM_INFO ../env/apb_scoreboard.sv(73) @ 2565000: uvm_test_top.env.scoreboard [apb_scoreboard] T#38 [READ PASS] ADDR=0x00000324 RDATA=0x1a9e77fa
# UVM_INFO ../seq/apb_wr_rd_seq.sv(56) @ 2565000: uvm_test_top.env.agent.sequencer@@wr_rd_seq [apb_wr_rd_seq] READ : ADDR=0x00000324 RDATA=0x1a9e77fa
# UVM_INFO ../env/apb_agent/apb_monitor.sv(71) @ 2635000: uvm_test_top.env.agent.monitor [apb_monitor] Collected: T#0 | UNKNOWN_SEQ | ADDR=0x0000030c WRITE=1 DATA=0x8253057f RDATA=0x1a9e77fa SLVERR=0 | WAIT=3 cycles
# UVM_INFO ../seq/apb_wr_rd_seq.sv(41) @ 2635000: uvm_test_top.env.agent.sequencer@@wr_rd_seq [apb_wr_rd_seq] WRITE: ADDR=0x0000030c DATA=0x8253057f
# UVM_INFO ../env/apb_agent/apb_monitor.sv(71) @ 2675000: uvm_test_top.env.agent.monitor [apb_monitor] Collected: T#0 | UNKNOWN_SEQ | ADDR=0x0000030c WRITE=0 DATA=0x8253057f RDATA=0x8253057f SLVERR=0 | WAIT=0 cycles
# UVM_INFO ../env/apb_scoreboard.sv(73) @ 2675000: uvm_test_top.env.scoreboard [apb_scoreboard] T#40 [READ PASS] ADDR=0x0000030c RDATA=0x8253057f
# UVM_INFO ../seq/apb_wr_rd_seq.sv(56) @ 2675000: uvm_test_top.env.agent.sequencer@@wr_rd_seq [apb_wr_rd_seq] READ : ADDR=0x0000030c RDATA=0x8253057f
# UVM_INFO ../env/apb_agent/apb_monitor.sv(71) @ 2715000: uvm_test_top.env.agent.monitor [apb_monitor] Collected: T#0 | UNKNOWN_SEQ | ADDR=0x000002a0 WRITE=1 DATA=0x661def78 RDATA=0x8253057f SLVERR=0 | WAIT=0 cycles
# UVM_INFO ../seq/apb_wr_rd_seq.sv(41) @ 2715000: uvm_test_top.env.agent.sequencer@@wr_rd_seq [apb_wr_rd_seq] WRITE: ADDR=0x000002a0 DATA=0x661def78
# UVM_INFO ../env/apb_agent/apb_monitor.sv(71) @ 2805000: uvm_test_top.env.agent.monitor [apb_monitor] Collected: T#0 | UNKNOWN_SEQ | ADDR=0x000002a0 WRITE=0 DATA=0x661def78 RDATA=0x661def78 SLVERR=0 | WAIT=5 cycles
# UVM_INFO ../env/apb_scoreboard.sv(73) @ 2805000: uvm_test_top.env.scoreboard [apb_scoreboard] T#42 [READ PASS] ADDR=0x000002a0 RDATA=0x661def78
# UVM_INFO ../seq/apb_wr_rd_seq.sv(56) @ 2805000: uvm_test_top.env.agent.sequencer@@wr_rd_seq [apb_wr_rd_seq] READ : ADDR=0x000002a0 RDATA=0x661def78
# UVM_INFO ../env/apb_agent/apb_monitor.sv(71) @ 2905000: uvm_test_top.env.agent.monitor [apb_monitor] Collected: T#0 | UNKNOWN_SEQ | ADDR=0x0000010c WRITE=1 DATA=0x194b06c6 RDATA=0x661def78 SLVERR=0 | WAIT=6 cycles
# UVM_INFO ../seq/apb_wr_rd_seq.sv(41) @ 2905000: uvm_test_top.env.agent.sequencer@@wr_rd_seq [apb_wr_rd_seq] WRITE: ADDR=0x0000010c DATA=0x194b06c6
# UVM_INFO ../env/apb_agent/apb_monitor.sv(71) @ 2945000: uvm_test_top.env.agent.monitor [apb_monitor] Collected: T#0 | UNKNOWN_SEQ | ADDR=0x0000010c WRITE=0 DATA=0x194b06c6 RDATA=0x194b06c6 SLVERR=0 | WAIT=0 cycles
# UVM_INFO ../env/apb_scoreboard.sv(73) @ 2945000: uvm_test_top.env.scoreboard [apb_scoreboard] T#44 [READ PASS] ADDR=0x0000010c RDATA=0x194b06c6
# UVM_INFO ../seq/apb_wr_rd_seq.sv(56) @ 2945000: uvm_test_top.env.agent.sequencer@@wr_rd_seq [apb_wr_rd_seq] READ : ADDR=0x0000010c RDATA=0x194b06c6
# UVM_INFO ../env/apb_agent/apb_monitor.sv(71) @ 3005000: uvm_test_top.env.agent.monitor [apb_monitor] Collected: T#0 | UNKNOWN_SEQ | ADDR=0x000003dc WRITE=1 DATA=0xcc6c05ab RDATA=0x194b06c6 SLVERR=0 | WAIT=2 cycles
# UVM_INFO ../seq/apb_wr_rd_seq.sv(41) @ 3005000: uvm_test_top.env.agent.sequencer@@wr_rd_seq [apb_wr_rd_seq] WRITE: ADDR=0x000003dc DATA=0xcc6c05ab
# UVM_INFO ../env/apb_agent/apb_monitor.sv(71) @ 3075000: uvm_test_top.env.agent.monitor [apb_monitor] Collected: T#0 | UNKNOWN_SEQ | ADDR=0x000003dc WRITE=0 DATA=0xcc6c05ab RDATA=0xcc6c05ab SLVERR=0 | WAIT=3 cycles
# UVM_INFO ../env/apb_scoreboard.sv(73) @ 3075000: uvm_test_top.env.scoreboard [apb_scoreboard] T#46 [READ PASS] ADDR=0x000003dc RDATA=0xcc6c05ab
# UVM_INFO ../seq/apb_wr_rd_seq.sv(56) @ 3075000: uvm_test_top.env.agent.sequencer@@wr_rd_seq [apb_wr_rd_seq] READ : ADDR=0x000003dc RDATA=0xcc6c05ab
# UVM_INFO ../env/apb_agent/apb_monitor.sv(71) @ 3145000: uvm_test_top.env.agent.monitor [apb_monitor] Collected: T#0 | UNKNOWN_SEQ | ADDR=0x000000d0 WRITE=1 DATA=0xdbf3cea6 RDATA=0xcc6c05ab SLVERR=0 | WAIT=3 cycles
# UVM_INFO ../seq/apb_wr_rd_seq.sv(41) @ 3145000: uvm_test_top.env.agent.sequencer@@wr_rd_seq [apb_wr_rd_seq] WRITE: ADDR=0x000000d0 DATA=0xdbf3cea6
# UVM_INFO ../env/apb_agent/apb_monitor.sv(71) @ 3245000: uvm_test_top.env.agent.monitor [apb_monitor] Collected: T#0 | UNKNOWN_SEQ | ADDR=0x000000d0 WRITE=0 DATA=0xdbf3cea6 RDATA=0xdbf3cea6 SLVERR=0 | WAIT=6 cycles
# UVM_INFO ../env/apb_scoreboard.sv(73) @ 3245000: uvm_test_top.env.scoreboard [apb_scoreboard] T#48 [READ PASS] ADDR=0x000000d0 RDATA=0xdbf3cea6
# UVM_INFO ../seq/apb_wr_rd_seq.sv(56) @ 3245000: uvm_test_top.env.agent.sequencer@@wr_rd_seq [apb_wr_rd_seq] READ : ADDR=0x000000d0 RDATA=0xdbf3cea6
# UVM_INFO ../env/apb_agent/apb_monitor.sv(71) @ 3315000: uvm_test_top.env.agent.monitor [apb_monitor] Collected: T#0 | UNKNOWN_SEQ | ADDR=0x00000064 WRITE=1 DATA=0x7bc94842 RDATA=0xdbf3cea6 SLVERR=0 | WAIT=3 cycles
# UVM_INFO ../seq/apb_wr_rd_seq.sv(41) @ 3315000: uvm_test_top.env.agent.sequencer@@wr_rd_seq [apb_wr_rd_seq] WRITE: ADDR=0x00000064 DATA=0x7bc94842
# UVM_INFO ../env/apb_agent/apb_monitor.sv(71) @ 3355000: uvm_test_top.env.agent.monitor [apb_monitor] Collected: T#0 | UNKNOWN_SEQ | ADDR=0x00000064 WRITE=0 DATA=0x7bc94842 RDATA=0x7bc94842 SLVERR=0 | WAIT=0 cycles
# UVM_INFO ../env/apb_scoreboard.sv(73) @ 3355000: uvm_test_top.env.scoreboard [apb_scoreboard] T#50 [READ PASS] ADDR=0x00000064 RDATA=0x7bc94842
# UVM_INFO ../seq/apb_wr_rd_seq.sv(56) @ 3355000: uvm_test_top.env.agent.sequencer@@wr_rd_seq [apb_wr_rd_seq] READ : ADDR=0x00000064 RDATA=0x7bc94842
# UVM_INFO ../env/apb_agent/apb_monitor.sv(71) @ 3405000: uvm_test_top.env.agent.monitor [apb_monitor] Collected: T#0 | UNKNOWN_SEQ | ADDR=0x00000074 WRITE=1 DATA=0x10d0b823 RDATA=0x7bc94842 SLVERR=0 | WAIT=1 cycles
# UVM_INFO ../seq/apb_wr_rd_seq.sv(41) @ 3405000: uvm_test_top.env.agent.sequencer@@wr_rd_seq [apb_wr_rd_seq] WRITE: ADDR=0x00000074 DATA=0x10d0b823
# UVM_INFO ../env/apb_agent/apb_monitor.sv(71) @ 3495000: uvm_test_top.env.agent.monitor [apb_monitor] Collected: T#0 | UNKNOWN_SEQ | ADDR=0x00000074 WRITE=0 DATA=0x10d0b823 RDATA=0x10d0b823 SLVERR=0 | WAIT=5 cycles
# UVM_INFO ../env/apb_scoreboard.sv(73) @ 3495000: uvm_test_top.env.scoreboard [apb_scoreboard] T#52 [READ PASS] ADDR=0x00000074 RDATA=0x10d0b823
# UVM_INFO ../seq/apb_wr_rd_seq.sv(56) @ 3495000: uvm_test_top.env.agent.sequencer@@wr_rd_seq [apb_wr_rd_seq] READ : ADDR=0x00000074 RDATA=0x10d0b823
# UVM_INFO ../env/apb_agent/apb_monitor.sv(71) @ 3585000: uvm_test_top.env.agent.monitor [apb_monitor] Collected: T#0 | UNKNOWN_SEQ | ADDR=0x00000298 WRITE=1 DATA=0x2b6e3fde RDATA=0x10d0b823 SLVERR=0 | WAIT=5 cycles
# UVM_INFO ../seq/apb_wr_rd_seq.sv(41) @ 3585000: uvm_test_top.env.agent.sequencer@@wr_rd_seq [apb_wr_rd_seq] WRITE: ADDR=0x00000298 DATA=0x2b6e3fde
# UVM_INFO ../env/apb_agent/apb_monitor.sv(71) @ 3625000: uvm_test_top.env.agent.monitor [apb_monitor] Collected: T#0 | UNKNOWN_SEQ | ADDR=0x00000298 WRITE=0 DATA=0x2b6e3fde RDATA=0x2b6e3fde SLVERR=0 | WAIT=0 cycles
# UVM_INFO ../env/apb_scoreboard.sv(73) @ 3625000: uvm_test_top.env.scoreboard [apb_scoreboard] T#54 [READ PASS] ADDR=0x00000298 RDATA=0x2b6e3fde
# UVM_INFO ../seq/apb_wr_rd_seq.sv(56) @ 3625000: uvm_test_top.env.agent.sequencer@@wr_rd_seq [apb_wr_rd_seq] READ : ADDR=0x00000298 RDATA=0x2b6e3fde
# UVM_INFO ../env/apb_agent/apb_monitor.sv(71) @ 3675000: uvm_test_top.env.agent.monitor [apb_monitor] Collected: T#0 | UNKNOWN_SEQ | ADDR=0x00000344 WRITE=1 DATA=0xb0a4374e RDATA=0x2b6e3fde SLVERR=0 | WAIT=1 cycles
# UVM_INFO ../seq/apb_wr_rd_seq.sv(41) @ 3675000: uvm_test_top.env.agent.sequencer@@wr_rd_seq [apb_wr_rd_seq] WRITE: ADDR=0x00000344 DATA=0xb0a4374e
# UVM_INFO ../env/apb_agent/apb_monitor.sv(71) @ 3715000: uvm_test_top.env.agent.monitor [apb_monitor] Collected: T#0 | UNKNOWN_SEQ | ADDR=0x00000344 WRITE=0 DATA=0xb0a4374e RDATA=0xb0a4374e SLVERR=0 | WAIT=0 cycles
# UVM_INFO ../env/apb_scoreboard.sv(73) @ 3715000: uvm_test_top.env.scoreboard [apb_scoreboard] T#56 [READ PASS] ADDR=0x00000344 RDATA=0xb0a4374e
# UVM_INFO ../seq/apb_wr_rd_seq.sv(56) @ 3715000: uvm_test_top.env.agent.sequencer@@wr_rd_seq [apb_wr_rd_seq] READ : ADDR=0x00000344 RDATA=0xb0a4374e
# UVM_INFO ../env/apb_agent/apb_monitor.sv(71) @ 3805000: uvm_test_top.env.agent.monitor [apb_monitor] Collected: T#0 | UNKNOWN_SEQ | ADDR=0x000001e0 WRITE=1 DATA=0x6c985566 RDATA=0xb0a4374e SLVERR=0 | WAIT=5 cycles
# UVM_INFO ../seq/apb_wr_rd_seq.sv(41) @ 3805000: uvm_test_top.env.agent.sequencer@@wr_rd_seq [apb_wr_rd_seq] WRITE: ADDR=0x000001e0 DATA=0x6c985566
# UVM_INFO ../env/apb_agent/apb_monitor.sv(71) @ 3915000: uvm_test_top.env.agent.monitor [apb_monitor] Collected: T#0 | UNKNOWN_SEQ | ADDR=0x000001e0 WRITE=0 DATA=0x6c985566 RDATA=0x6c985566 SLVERR=0 | WAIT=7 cycles
# UVM_INFO ../env/apb_scoreboard.sv(73) @ 3915000: uvm_test_top.env.scoreboard [apb_scoreboard] T#58 [READ PASS] ADDR=0x000001e0 RDATA=0x6c985566
# UVM_INFO ../seq/apb_wr_rd_seq.sv(56) @ 3915000: uvm_test_top.env.agent.sequencer@@wr_rd_seq [apb_wr_rd_seq] READ : ADDR=0x000001e0 RDATA=0x6c985566
# UVM_INFO ../env/apb_agent/apb_monitor.sv(71) @ 3955000: uvm_test_top.env.agent.monitor [apb_monitor] Collected: T#0 | UNKNOWN_SEQ | ADDR=0x000000e8 WRITE=1 DATA=0x0ea487e3 RDATA=0x6c985566 SLVERR=0 | WAIT=0 cycles
# UVM_INFO ../seq/apb_wr_rd_seq.sv(41) @ 3955000: uvm_test_top.env.agent.sequencer@@wr_rd_seq [apb_wr_rd_seq] WRITE: ADDR=0x000000e8 DATA=0x0ea487e3
# UVM_INFO ../env/apb_agent/apb_monitor.sv(71) @ 4045000: uvm_test_top.env.agent.monitor [apb_monitor] Collected: T#0 | UNKNOWN_SEQ | ADDR=0x000000e8 WRITE=0 DATA=0x0ea487e3 RDATA=0x0ea487e3 SLVERR=0 | WAIT=5 cycles
# UVM_INFO ../env/apb_scoreboard.sv(73) @ 4045000: uvm_test_top.env.scoreboard [apb_scoreboard] T#60 [READ PASS] ADDR=0x000000e8 RDATA=0x0ea487e3
# UVM_INFO ../seq/apb_wr_rd_seq.sv(56) @ 4045000: uvm_test_top.env.agent.sequencer@@wr_rd_seq [apb_wr_rd_seq] READ : ADDR=0x000000e8 RDATA=0x0ea487e3
# UVM_INFO ../env/apb_agent/apb_monitor.sv(71) @ 4125000: uvm_test_top.env.agent.monitor [apb_monitor] Collected: T#0 | UNKNOWN_SEQ | ADDR=0x00000358 WRITE=1 DATA=0xdc438cab RDATA=0x0ea487e3 SLVERR=0 | WAIT=4 cycles
# UVM_INFO ../seq/apb_wr_rd_seq.sv(41) @ 4125000: uvm_test_top.env.agent.sequencer@@wr_rd_seq [apb_wr_rd_seq] WRITE: ADDR=0x00000358 DATA=0xdc438cab
# UVM_INFO ../env/apb_agent/apb_monitor.sv(71) @ 4235000: uvm_test_top.env.agent.monitor [apb_monitor] Collected: T#0 | UNKNOWN_SEQ | ADDR=0x00000358 WRITE=0 DATA=0xdc438cab RDATA=0xdc438cab SLVERR=0 | WAIT=7 cycles
# UVM_INFO ../env/apb_scoreboard.sv(73) @ 4235000: uvm_test_top.env.scoreboard [apb_scoreboard] T#62 [READ PASS] ADDR=0x00000358 RDATA=0xdc438cab
# UVM_INFO ../seq/apb_wr_rd_seq.sv(56) @ 4235000: uvm_test_top.env.agent.sequencer@@wr_rd_seq [apb_wr_rd_seq] READ : ADDR=0x00000358 RDATA=0xdc438cab
# UVM_INFO ../env/apb_agent/apb_monitor.sv(71) @ 4325000: uvm_test_top.env.agent.monitor [apb_monitor] Collected: T#0 | UNKNOWN_SEQ | ADDR=0x00000054 WRITE=1 DATA=0xbcc1bec7 RDATA=0xdc438cab SLVERR=0 | WAIT=5 cycles
# UVM_INFO ../seq/apb_wr_rd_seq.sv(41) @ 4325000: uvm_test_top.env.agent.sequencer@@wr_rd_seq [apb_wr_rd_seq] WRITE: ADDR=0x00000054 DATA=0xbcc1bec7
# UVM_INFO ../env/apb_agent/apb_monitor.sv(71) @ 4395000: uvm_test_top.env.agent.monitor [apb_monitor] Collected: T#0 | UNKNOWN_SEQ | ADDR=0x00000054 WRITE=0 DATA=0xbcc1bec7 RDATA=0xbcc1bec7 SLVERR=0 | WAIT=3 cycles
# UVM_INFO ../env/apb_scoreboard.sv(73) @ 4395000: uvm_test_top.env.scoreboard [apb_scoreboard] T#64 [READ PASS] ADDR=0x00000054 RDATA=0xbcc1bec7
# UVM_INFO ../seq/apb_wr_rd_seq.sv(56) @ 4395000: uvm_test_top.env.agent.sequencer@@wr_rd_seq [apb_wr_rd_seq] READ : ADDR=0x00000054 RDATA=0xbcc1bec7
# UVM_INFO ../env/apb_agent/apb_monitor.sv(71) @ 4505000: uvm_test_top.env.agent.monitor [apb_monitor] Collected: T#0 | UNKNOWN_SEQ | ADDR=0x00000298 WRITE=1 DATA=0xad0bcb59 RDATA=0xbcc1bec7 SLVERR=0 | WAIT=7 cycles
# UVM_INFO ../seq/apb_write_seq.sv(34) @ 4505000: uvm_test_top.env.agent.sequencer@@write_seq [apb_write_seq] TASK WRITE: Sent Write: ADDR = 0x00000298, DATA = 0xad0bcb59
# UVM_INFO ../env/apb_agent/apb_monitor.sv(71) @ 4565000: uvm_test_top.env.agent.monitor [apb_monitor] Collected: T#0 | UNKNOWN_SEQ | ADDR=0x00000254 WRITE=1 DATA=0x9b9a5af9 RDATA=0xbcc1bec7 SLVERR=0 | WAIT=2 cycles
# UVM_INFO ../seq/apb_write_seq.sv(34) @ 4565000: uvm_test_top.env.agent.sequencer@@write_seq [apb_write_seq] TASK WRITE: Sent Write: ADDR = 0x00000254, DATA = 0x9b9a5af9
# UVM_INFO ../env/apb_agent/apb_monitor.sv(71) @ 4675000: uvm_test_top.env.agent.monitor [apb_monitor] Collected: T#0 | UNKNOWN_SEQ | ADDR=0x00000488 WRITE=1 DATA=0x5cc11002 RDATA=0xdeadbeef SLVERR=1 | WAIT=7 cycles
# UVM_WARNING ../env/apb_scoreboard.sv(51) @ 4675000: uvm_test_top.env.scoreboard [apb_scoreboard] T#67 [SLVERR] ADDR=0x00000488
# UVM_INFO ../seq/apb_write_seq.sv(34) @ 4675000: uvm_test_top.env.agent.sequencer@@write_seq [apb_write_seq] TASK WRITE: Sent Write: ADDR = 0x00000488, DATA = 0x5cc11002
# UVM_INFO ../env/apb_agent/apb_monitor.sv(71) @ 4735000: uvm_test_top.env.agent.monitor [apb_monitor] Collected: T#0 | UNKNOWN_SEQ | ADDR=0x00000190 WRITE=1 DATA=0xf82b2652 RDATA=0xdeadbeef SLVERR=0 | WAIT=2 cycles
# UVM_INFO ../seq/apb_write_seq.sv(34) @ 4735000: uvm_test_top.env.agent.sequencer@@write_seq [apb_write_seq] TASK WRITE: Sent Write: ADDR = 0x00000190, DATA = 0xf82b2652
# UVM_INFO ../env/apb_agent/apb_monitor.sv(71) @ 4775000: uvm_test_top.env.agent.monitor [apb_monitor] Collected: T#0 | UNKNOWN_SEQ | ADDR=0x00000064 WRITE=1 DATA=0xb70eaacb RDATA=0xdeadbeef SLVERR=0 | WAIT=0 cycles
# UVM_INFO ../seq/apb_write_seq.sv(34) @ 4775000: uvm_test_top.env.agent.sequencer@@write_seq [apb_write_seq] TASK WRITE: Sent Write: ADDR = 0x00000064, DATA = 0xb70eaacb
# UVM_INFO ../env/apb_agent/apb_monitor.sv(71) @ 4885000: uvm_test_top.env.agent.monitor [apb_monitor] Collected: T#0 | UNKNOWN_SEQ | ADDR=0x0000037c WRITE=1 DATA=0xd89f246b RDATA=0xdeadbeef SLVERR=0 | WAIT=7 cycles
# UVM_INFO ../seq/apb_write_seq.sv(34) @ 4885000: uvm_test_top.env.agent.sequencer@@write_seq [apb_write_seq] TASK WRITE: Sent Write: ADDR = 0x0000037c, DATA = 0xd89f246b
# UVM_INFO ../env/apb_agent/apb_monitor.sv(71) @ 4935000: uvm_test_top.env.agent.monitor [apb_monitor] Collected: T#0 | UNKNOWN_SEQ | ADDR=0x00000204 WRITE=1 DATA=0xb4981161 RDATA=0xdeadbeef SLVERR=0 | WAIT=1 cycles
# UVM_INFO ../seq/apb_write_seq.sv(34) @ 4935000: uvm_test_top.env.agent.sequencer@@write_seq [apb_write_seq] TASK WRITE: Sent Write: ADDR = 0x00000204, DATA = 0xb4981161
# UVM_INFO ../env/apb_agent/apb_monitor.sv(71) @ 4995000: uvm_test_top.env.agent.monitor [apb_monitor] Collected: T#0 | UNKNOWN_SEQ | ADDR=0x00000098 WRITE=1 DATA=0x479442a3 RDATA=0xdeadbeef SLVERR=0 | WAIT=2 cycles
# UVM_INFO ../seq/apb_write_seq.sv(34) @ 4995000: uvm_test_top.env.agent.sequencer@@write_seq [apb_write_seq] TASK WRITE: Sent Write: ADDR = 0x00000098, DATA = 0x479442a3
# UVM_INFO ../env/apb_agent/apb_monitor.sv(71) @ 5045000: uvm_test_top.env.agent.monitor [apb_monitor] Collected: T#0 | UNKNOWN_SEQ | ADDR=0x00000074 WRITE=1 DATA=0xab1cc343 RDATA=0xdeadbeef SLVERR=0 | WAIT=1 cycles
# UVM_INFO ../seq/apb_write_seq.sv(34) @ 5045000: uvm_test_top.env.agent.sequencer@@write_seq [apb_write_seq] TASK WRITE: Sent Write: ADDR = 0x00000074, DATA = 0xab1cc343
# UVM_INFO ../env/apb_agent/apb_monitor.sv(71) @ 5135000: uvm_test_top.env.agent.monitor [apb_monitor] Collected: T#0 | UNKNOWN_SEQ | ADDR=0x00000104 WRITE=1 DATA=0x8ecf363e RDATA=0xdeadbeef SLVERR=0 | WAIT=5 cycles
# UVM_INFO ../seq/apb_write_seq.sv(34) @ 5135000: uvm_test_top.env.agent.sequencer@@write_seq [apb_write_seq] TASK WRITE: Sent Write: ADDR = 0x00000104, DATA = 0x8ecf363e
# UVM_INFO ../env/apb_agent/apb_monitor.sv(71) @ 5215000: uvm_test_top.env.agent.monitor [apb_monitor] Collected: T#0 | UNKNOWN_SEQ | ADDR=0x00000168 WRITE=1 DATA=0x9ae5e9bc RDATA=0xdeadbeef SLVERR=0 | WAIT=4 cycles
# UVM_INFO ../seq/apb_write_seq.sv(34) @ 5215000: uvm_test_top.env.agent.sequencer@@write_seq [apb_write_seq] TASK WRITE: Sent Write: ADDR = 0x00000168, DATA = 0x9ae5e9bc
# UVM_INFO ../env/apb_agent/apb_monitor.sv(71) @ 5255000: uvm_test_top.env.agent.monitor [apb_monitor] Collected: T#0 | UNKNOWN_SEQ | ADDR=0x0000034c WRITE=1 DATA=0x2205397c RDATA=0xdeadbeef SLVERR=0 | WAIT=0 cycles
# UVM_INFO ../seq/apb_write_seq.sv(34) @ 5255000: uvm_test_top.env.agent.sequencer@@write_seq [apb_write_seq] TASK WRITE: Sent Write: ADDR = 0x0000034c, DATA = 0x2205397c
# UVM_INFO ../env/apb_agent/apb_monitor.sv(71) @ 5315000: uvm_test_top.env.agent.monitor [apb_monitor] Collected: T#0 | UNKNOWN_SEQ | ADDR=0x000001f8 WRITE=1 DATA=0x71e57e87 RDATA=0xdeadbeef SLVERR=0 | WAIT=2 cycles
# UVM_INFO ../seq/apb_write_seq.sv(34) @ 5315000: uvm_test_top.env.agent.sequencer@@write_seq [apb_write_seq] TASK WRITE: Sent Write: ADDR = 0x000001f8, DATA = 0x71e57e87
# UVM_INFO ../env/apb_agent/apb_monitor.sv(71) @ 5355000: uvm_test_top.env.agent.monitor [apb_monitor] Collected: T#0 | UNKNOWN_SEQ | ADDR=0x00000340 WRITE=1 DATA=0x1d4a83ee RDATA=0xdeadbeef SLVERR=0 | WAIT=0 cycles
# UVM_INFO ../seq/apb_write_seq.sv(34) @ 5355000: uvm_test_top.env.agent.sequencer@@write_seq [apb_write_seq] TASK WRITE: Sent Write: ADDR = 0x00000340, DATA = 0x1d4a83ee
# UVM_INFO ../env/apb_agent/apb_monitor.sv(71) @ 5435000: uvm_test_top.env.agent.monitor [apb_monitor] Collected: T#0 | UNKNOWN_SEQ | ADDR=0x000004c4 WRITE=1 DATA=0x183981a8 RDATA=0xdeadbeef SLVERR=1 | WAIT=4 cycles
# UVM_WARNING ../env/apb_scoreboard.sv(51) @ 5435000: uvm_test_top.env.scoreboard [apb_scoreboard] T#79 [SLVERR] ADDR=0x000004c4
# UVM_INFO ../seq/apb_write_seq.sv(34) @ 5435000: uvm_test_top.env.agent.sequencer@@write_seq [apb_write_seq] TASK WRITE: Sent Write: ADDR = 0x000004c4, DATA = 0x183981a8
# UVM_INFO ../env/apb_agent/apb_monitor.sv(71) @ 5475000: uvm_test_top.env.agent.monitor [apb_monitor] Collected: T#0 | UNKNOWN_SEQ | ADDR=0x000002ac WRITE=1 DATA=0x1ffb0c7e RDATA=0xdeadbeef SLVERR=0 | WAIT=0 cycles
# UVM_INFO ../seq/apb_write_seq.sv(34) @ 5475000: uvm_test_top.env.agent.sequencer@@write_seq [apb_write_seq] TASK WRITE: Sent Write: ADDR = 0x000002ac, DATA = 0x1ffb0c7e
# UVM_INFO ../env/apb_agent/apb_monitor.sv(71) @ 5555000: uvm_test_top.env.agent.monitor [apb_monitor] Collected: T#0 | UNKNOWN_SEQ | ADDR=0x00000298 WRITE=0 DATA=0xad0bcb59 RDATA=0xad0bcb59 SLVERR=0 | WAIT=4 cycles
# UVM_INFO ../env/apb_scoreboard.sv(73) @ 5555000: uvm_test_top.env.scoreboard [apb_scoreboard] T#81 [READ PASS] ADDR=0x00000298 RDATA=0xad0bcb59
# UVM_INFO ../seq/apb_read_seq.sv(38) @ 5555000: uvm_test_top.env.agent.sequencer@@read_seq [apb_read_seq] TASK READ DATA : Sent Read: ADDR=0x00000298
# UVM_INFO ../env/apb_agent/apb_monitor.sv(71) @ 5605000: uvm_test_top.env.agent.monitor [apb_monitor] Collected: T#0 | UNKNOWN_SEQ | ADDR=0x00000128 WRITE=0 DATA=0x00000000 RDATA=0x00000000 SLVERR=0 | WAIT=1 cycles
# UVM_INFO ../env/apb_scoreboard.sv(73) @ 5605000: uvm_test_top.env.scoreboard [apb_scoreboard] T#82 [READ PASS] ADDR=0x00000128 RDATA=0x00000000
# UVM_INFO ../seq/apb_read_seq.sv(38) @ 5605000: uvm_test_top.env.agent.sequencer@@read_seq [apb_read_seq] TASK READ DATA : Sent Read: ADDR=0x00000128
# UVM_INFO ../env/apb_agent/apb_monitor.sv(71) @ 5705000: uvm_test_top.env.agent.monitor [apb_monitor] Collected: T#0 | UNKNOWN_SEQ | ADDR=0x00000494 WRITE=0 DATA=0xdeadbeef RDATA=0xdeadbeef SLVERR=1 | WAIT=6 cycles
# UVM_WARNING ../env/apb_scoreboard.sv(51) @ 5705000: uvm_test_top.env.scoreboard [apb_scoreboard] T#83 [SLVERR] ADDR=0x00000494
# UVM_INFO ../seq/apb_read_seq.sv(38) @ 5705000: uvm_test_top.env.agent.sequencer@@read_seq [apb_read_seq] TASK READ DATA : Sent Read: ADDR=0x00000494
# UVM_INFO ../env/apb_agent/apb_monitor.sv(71) @ 5775000: uvm_test_top.env.agent.monitor [apb_monitor] Collected: T#0 | UNKNOWN_SEQ | ADDR=0x00000058 WRITE=0 DATA=0x00000000 RDATA=0x00000000 SLVERR=0 | WAIT=3 cycles
# UVM_INFO ../env/apb_scoreboard.sv(73) @ 5775000: uvm_test_top.env.scoreboard [apb_scoreboard] T#84 [READ PASS] ADDR=0x00000058 RDATA=0x00000000
# UVM_INFO ../seq/apb_read_seq.sv(38) @ 5775000: uvm_test_top.env.agent.sequencer@@read_seq [apb_read_seq] TASK READ DATA : Sent Read: ADDR=0x00000058
# UVM_INFO ../env/apb_agent/apb_monitor.sv(71) @ 5825000: uvm_test_top.env.agent.monitor [apb_monitor] Collected: T#0 | UNKNOWN_SEQ | ADDR=0x000000c8 WRITE=0 DATA=0x00000000 RDATA=0x00000000 SLVERR=0 | WAIT=1 cycles
# UVM_INFO ../env/apb_scoreboard.sv(73) @ 5825000: uvm_test_top.env.scoreboard [apb_scoreboard] T#85 [READ PASS] ADDR=0x000000c8 RDATA=0x00000000
# UVM_INFO ../seq/apb_read_seq.sv(38) @ 5825000: uvm_test_top.env.agent.sequencer@@read_seq [apb_read_seq] TASK READ DATA : Sent Read: ADDR=0x000000c8
# UVM_INFO ../env/apb_agent/apb_monitor.sv(71) @ 5885000: uvm_test_top.env.agent.monitor [apb_monitor] Collected: T#0 | UNKNOWN_SEQ | ADDR=0x00000410 WRITE=0 DATA=0xdeadbeef RDATA=0xdeadbeef SLVERR=1 | WAIT=2 cycles
# UVM_WARNING ../env/apb_scoreboard.sv(51) @ 5885000: uvm_test_top.env.scoreboard [apb_scoreboard] T#86 [SLVERR] ADDR=0x00000410
# UVM_INFO ../seq/apb_read_seq.sv(38) @ 5885000: uvm_test_top.env.agent.sequencer@@read_seq [apb_read_seq] TASK READ DATA : Sent Read: ADDR=0x00000410
# UVM_INFO ../env/apb_agent/apb_monitor.sv(71) @ 5975000: uvm_test_top.env.agent.monitor [apb_monitor] Collected: T#0 | UNKNOWN_SEQ | ADDR=0x000000c4 WRITE=0 DATA=0x00000000 RDATA=0x00000000 SLVERR=0 | WAIT=5 cycles
# UVM_INFO ../env/apb_scoreboard.sv(73) @ 5975000: uvm_test_top.env.scoreboard [apb_scoreboard] T#87 [READ PASS] ADDR=0x000000c4 RDATA=0x00000000
# UVM_INFO ../seq/apb_read_seq.sv(38) @ 5975000: uvm_test_top.env.agent.sequencer@@read_seq [apb_read_seq] TASK READ DATA : Sent Read: ADDR=0x000000c4
# UVM_INFO ../env/apb_agent/apb_monitor.sv(71) @ 6035000: uvm_test_top.env.agent.monitor [apb_monitor] Collected: T#0 | UNKNOWN_SEQ | ADDR=0x0000022c WRITE=0 DATA=0x00000000 RDATA=0x00000000 SLVERR=0 | WAIT=2 cycles
# UVM_INFO ../env/apb_scoreboard.sv(73) @ 6035000: uvm_test_top.env.scoreboard [apb_scoreboard] T#88 [READ PASS] ADDR=0x0000022c RDATA=0x00000000
# UVM_INFO ../seq/apb_read_seq.sv(38) @ 6035000: uvm_test_top.env.agent.sequencer@@read_seq [apb_read_seq] TASK READ DATA : Sent Read: ADDR=0x0000022c
# UVM_INFO ../env/apb_agent/apb_monitor.sv(71) @ 6095000: uvm_test_top.env.agent.monitor [apb_monitor] Collected: T#0 | UNKNOWN_SEQ | ADDR=0x000001d4 WRITE=0 DATA=0x00000000 RDATA=0x00000000 SLVERR=0 | WAIT=2 cycles
# UVM_INFO ../env/apb_scoreboard.sv(73) @ 6095000: uvm_test_top.env.scoreboard [apb_scoreboard] T#89 [READ PASS] ADDR=0x000001d4 RDATA=0x00000000
# UVM_INFO ../seq/apb_read_seq.sv(38) @ 6095000: uvm_test_top.env.agent.sequencer@@read_seq [apb_read_seq] TASK READ DATA : Sent Read: ADDR=0x000001d4
# UVM_INFO ../env/apb_agent/apb_monitor.sv(71) @ 6135000: uvm_test_top.env.agent.monitor [apb_monitor] Collected: T#0 | UNKNOWN_SEQ | ADDR=0x000002e4 WRITE=0 DATA=0x00000000 RDATA=0x00000000 SLVERR=0 | WAIT=0 cycles
# UVM_INFO ../env/apb_scoreboard.sv(73) @ 6135000: uvm_test_top.env.scoreboard [apb_scoreboard] T#90 [READ PASS] ADDR=0x000002e4 RDATA=0x00000000
# UVM_INFO ../seq/apb_read_seq.sv(38) @ 6135000: uvm_test_top.env.agent.sequencer@@read_seq [apb_read_seq] TASK READ DATA : Sent Read: ADDR=0x000002e4
# UVM_INFO ../env/apb_agent/apb_monitor.sv(71) @ 6205000: uvm_test_top.env.agent.monitor [apb_monitor] Collected: T#0 | UNKNOWN_SEQ | ADDR=0x000000a8 WRITE=0 DATA=0x00000000 RDATA=0x00000000 SLVERR=0 | WAIT=3 cycles
# UVM_INFO ../env/apb_scoreboard.sv(73) @ 6205000: uvm_test_top.env.scoreboard [apb_scoreboard] T#91 [READ PASS] ADDR=0x000000a8 RDATA=0x00000000
# UVM_INFO ../seq/apb_read_seq.sv(38) @ 6205000: uvm_test_top.env.agent.sequencer@@read_seq [apb_read_seq] TASK READ DATA : Sent Read: ADDR=0x000000a8
# UVM_INFO ../env/apb_agent/apb_monitor.sv(71) @ 6295000: uvm_test_top.env.agent.monitor [apb_monitor] Collected: T#0 | UNKNOWN_SEQ | ADDR=0x00000338 WRITE=0 DATA=0x00000000 RDATA=0x00000000 SLVERR=0 | WAIT=5 cycles
# UVM_INFO ../env/apb_scoreboard.sv(73) @ 6295000: uvm_test_top.env.scoreboard [apb_scoreboard] T#92 [READ PASS] ADDR=0x00000338 RDATA=0x00000000
# UVM_INFO ../seq/apb_read_seq.sv(38) @ 6295000: uvm_test_top.env.agent.sequencer@@read_seq [apb_read_seq] TASK READ DATA : Sent Read: ADDR=0x00000338
# UVM_INFO ../env/apb_agent/apb_monitor.sv(71) @ 6385000: uvm_test_top.env.agent.monitor [apb_monitor] Collected: T#0 | UNKNOWN_SEQ | ADDR=0x00000490 WRITE=0 DATA=0xdeadbeef RDATA=0xdeadbeef SLVERR=1 | WAIT=5 cycles
# UVM_WARNING ../env/apb_scoreboard.sv(51) @ 6385000: uvm_test_top.env.scoreboard [apb_scoreboard] T#93 [SLVERR] ADDR=0x00000490
# UVM_INFO ../seq/apb_read_seq.sv(38) @ 6385000: uvm_test_top.env.agent.sequencer@@read_seq [apb_read_seq] TASK READ DATA : Sent Read: ADDR=0x00000490
# UVM_INFO ../env/apb_agent/apb_monitor.sv(71) @ 6485000: uvm_test_top.env.agent.monitor [apb_monitor] Collected: T#0 | UNKNOWN_SEQ | ADDR=0x000002f0 WRITE=0 DATA=0xc2d15aac RDATA=0xc2d15aac SLVERR=0 | WAIT=6 cycles
# UVM_INFO ../env/apb_scoreboard.sv(73) @ 6485000: uvm_test_top.env.scoreboard [apb_scoreboard] T#94 [READ PASS] ADDR=0x000002f0 RDATA=0xc2d15aac
# UVM_INFO ../seq/apb_read_seq.sv(38) @ 6485000: uvm_test_top.env.agent.sequencer@@read_seq [apb_read_seq] TASK READ DATA : Sent Read: ADDR=0x000002f0
# UVM_INFO ../env/apb_agent/apb_monitor.sv(71) @ 6545000: uvm_test_top.env.agent.monitor [apb_monitor] Collected: T#0 | UNKNOWN_SEQ | ADDR=0x00000008 WRITE=0 DATA=0x00000000 RDATA=0x00000000 SLVERR=0 | WAIT=2 cycles
# UVM_INFO ../env/apb_scoreboard.sv(73) @ 6545000: uvm_test_top.env.scoreboard [apb_scoreboard] T#95 [READ PASS] ADDR=0x00000008 RDATA=0x00000000
# UVM_INFO ../seq/apb_read_seq.sv(38) @ 6545000: uvm_test_top.env.agent.sequencer@@read_seq [apb_read_seq] TASK READ DATA : Sent Read: ADDR=0x00000008
# UVM_INFO ../env/apb_agent/apb_monitor.sv(71) @ 6635000: uvm_test_top.env.agent.monitor [apb_monitor] Collected: T#0 | UNKNOWN_SEQ | ADDR=0x00000408 WRITE=0 DATA=0xdeadbeef RDATA=0xdeadbeef SLVERR=1 | WAIT=5 cycles
# UVM_WARNING ../env/apb_scoreboard.sv(51) @ 6635000: uvm_test_top.env.scoreboard [apb_scoreboard] T#96 [SLVERR] ADDR=0x00000408
# UVM_INFO ../seq/apb_read_seq.sv(38) @ 6635000: uvm_test_top.env.agent.sequencer@@read_seq [apb_read_seq] TASK READ DATA : Sent Read: ADDR=0x00000408
# UVM_INFO ../env/apb_agent/apb_monitor.sv(71) @ 6675000: uvm_test_top.env.agent.monitor [apb_monitor] Collected: T#0 | UNKNOWN_SEQ | ADDR=0x00000158 WRITE=1 DATA=0xf97072f5 RDATA=0xdeadbeef SLVERR=0 | WAIT=0 cycles
# UVM_INFO ../seq/apb_wr_rd_seq.sv(41) @ 6675000: uvm_test_top.env.agent.sequencer@@wr_rd_seq [apb_wr_rd_seq] WRITE: ADDR=0x00000158 DATA=0xf97072f5
# UVM_INFO ../env/apb_agent/apb_monitor.sv(71) @ 6775000: uvm_test_top.env.agent.monitor [apb_monitor] Collected: T#0 | UNKNOWN_SEQ | ADDR=0x00000158 WRITE=0 DATA=0xf97072f5 RDATA=0xf97072f5 SLVERR=0 | WAIT=6 cycles
# UVM_INFO ../env/apb_scoreboard.sv(73) @ 6775000: uvm_test_top.env.scoreboard [apb_scoreboard] T#98 [READ PASS] ADDR=0x00000158 RDATA=0xf97072f5
# UVM_INFO ../seq/apb_wr_rd_seq.sv(56) @ 6775000: uvm_test_top.env.agent.sequencer@@wr_rd_seq [apb_wr_rd_seq] READ : ADDR=0x00000158 RDATA=0xf97072f5
# UVM_INFO ../env/apb_agent/apb_monitor.sv(71) @ 6875000: uvm_test_top.env.agent.monitor [apb_monitor] Collected: T#0 | UNKNOWN_SEQ | ADDR=0x000004b0 WRITE=1 DATA=0x11bf105e RDATA=0xdeadbeef SLVERR=1 | WAIT=6 cycles
# UVM_WARNING ../env/apb_scoreboard.sv(51) @ 6875000: uvm_test_top.env.scoreboard [apb_scoreboard] T#99 [SLVERR] ADDR=0x000004b0
# UVM_INFO ../seq/apb_wr_rd_seq.sv(41) @ 6875000: uvm_test_top.env.agent.sequencer@@wr_rd_seq [apb_wr_rd_seq] WRITE: ADDR=0x000004b0 DATA=0x11bf105e
# UVM_INFO ../env/apb_agent/apb_monitor.sv(71) @ 6955000: uvm_test_top.env.agent.monitor [apb_monitor] Collected: T#0 | UNKNOWN_SEQ | ADDR=0x000004b0 WRITE=0 DATA=0xdeadbeef RDATA=0xdeadbeef SLVERR=1 | WAIT=4 cycles
# UVM_WARNING ../env/apb_scoreboard.sv(51) @ 6955000: uvm_test_top.env.scoreboard [apb_scoreboard] T#100 [SLVERR] ADDR=0x000004b0
# UVM_INFO ../seq/apb_wr_rd_seq.sv(56) @ 6955000: uvm_test_top.env.agent.sequencer@@wr_rd_seq [apb_wr_rd_seq] READ : ADDR=0x000004b0 RDATA=0xdeadbeef
# UVM_INFO ../env/apb_agent/apb_monitor.sv(71) @ 7045000: uvm_test_top.env.agent.monitor [apb_monitor] Collected: T#0 | UNKNOWN_SEQ | ADDR=0x00000228 WRITE=1 DATA=0xcb6878cc RDATA=0xdeadbeef SLVERR=0 | WAIT=5 cycles
# UVM_INFO ../seq/apb_wr_rd_seq.sv(41) @ 7045000: uvm_test_top.env.agent.sequencer@@wr_rd_seq [apb_wr_rd_seq] WRITE: ADDR=0x00000228 DATA=0xcb6878cc
# UVM_INFO ../env/apb_agent/apb_monitor.sv(71) @ 7085000: uvm_test_top.env.agent.monitor [apb_monitor] Collected: T#0 | UNKNOWN_SEQ | ADDR=0x00000228 WRITE=0 DATA=0xcb6878cc RDATA=0xcb6878cc SLVERR=0 | WAIT=0 cycles
# UVM_INFO ../env/apb_scoreboard.sv(73) @ 7085000: uvm_test_top.env.scoreboard [apb_scoreboard] T#102 [READ PASS] ADDR=0x00000228 RDATA=0xcb6878cc
# UVM_INFO ../seq/apb_wr_rd_seq.sv(56) @ 7085000: uvm_test_top.env.agent.sequencer@@wr_rd_seq [apb_wr_rd_seq] READ : ADDR=0x00000228 RDATA=0xcb6878cc
# UVM_INFO ../env/apb_agent/apb_monitor.sv(71) @ 7125000: uvm_test_top.env.agent.monitor [apb_monitor] Collected: T#0 | UNKNOWN_SEQ | ADDR=0x00000334 WRITE=1 DATA=0xea33c831 RDATA=0xcb6878cc SLVERR=0 | WAIT=0 cycles
# UVM_INFO ../seq/apb_wr_rd_seq.sv(41) @ 7125000: uvm_test_top.env.agent.sequencer@@wr_rd_seq [apb_wr_rd_seq] WRITE: ADDR=0x00000334 DATA=0xea33c831
# UVM_INFO ../env/apb_agent/apb_monitor.sv(71) @ 7215000: uvm_test_top.env.agent.monitor [apb_monitor] Collected: T#0 | UNKNOWN_SEQ | ADDR=0x00000334 WRITE=0 DATA=0xea33c831 RDATA=0xea33c831 SLVERR=0 | WAIT=5 cycles
# UVM_INFO ../env/apb_scoreboard.sv(73) @ 7215000: uvm_test_top.env.scoreboard [apb_scoreboard] T#104 [READ PASS] ADDR=0x00000334 RDATA=0xea33c831
# UVM_INFO ../seq/apb_wr_rd_seq.sv(56) @ 7215000: uvm_test_top.env.agent.sequencer@@wr_rd_seq [apb_wr_rd_seq] READ : ADDR=0x00000334 RDATA=0xea33c831
# UVM_INFO ../env/apb_agent/apb_monitor.sv(71) @ 7305000: uvm_test_top.env.agent.monitor [apb_monitor] Collected: T#0 | UNKNOWN_SEQ | ADDR=0x000000c8 WRITE=1 DATA=0xb9de40e7 RDATA=0xea33c831 SLVERR=0 | WAIT=5 cycles
# UVM_INFO ../seq/apb_wr_rd_seq.sv(41) @ 7305000: uvm_test_top.env.agent.sequencer@@wr_rd_seq [apb_wr_rd_seq] WRITE: ADDR=0x000000c8 DATA=0xb9de40e7
# UVM_INFO ../env/apb_agent/apb_monitor.sv(71) @ 7365000: uvm_test_top.env.agent.monitor [apb_monitor] Collected: T#0 | UNKNOWN_SEQ | ADDR=0x000000c8 WRITE=0 DATA=0xb9de40e7 RDATA=0xb9de40e7 SLVERR=0 | WAIT=2 cycles
# UVM_INFO ../env/apb_scoreboard.sv(73) @ 7365000: uvm_test_top.env.scoreboard [apb_scoreboard] T#106 [READ PASS] ADDR=0x000000c8 RDATA=0xb9de40e7
# UVM_INFO ../seq/apb_wr_rd_seq.sv(56) @ 7365000: uvm_test_top.env.agent.sequencer@@wr_rd_seq [apb_wr_rd_seq] READ : ADDR=0x000000c8 RDATA=0xb9de40e7
# UVM_INFO ../env/apb_agent/apb_monitor.sv(71) @ 7445000: uvm_test_top.env.agent.monitor [apb_monitor] Collected: T#0 | UNKNOWN_SEQ | ADDR=0x000003f8 WRITE=1 DATA=0x96177c19 RDATA=0xb9de40e7 SLVERR=0 | WAIT=4 cycles
# UVM_INFO ../seq/apb_wr_rd_seq.sv(41) @ 7445000: uvm_test_top.env.agent.sequencer@@wr_rd_seq [apb_wr_rd_seq] WRITE: ADDR=0x000003f8 DATA=0x96177c19
# UVM_INFO ../env/apb_agent/apb_monitor.sv(71) @ 7525000: uvm_test_top.env.agent.monitor [apb_monitor] Collected: T#0 | UNKNOWN_SEQ | ADDR=0x000003f8 WRITE=0 DATA=0x96177c19 RDATA=0x96177c19 SLVERR=0 | WAIT=4 cycles
# UVM_INFO ../env/apb_scoreboard.sv(73) @ 7525000: uvm_test_top.env.scoreboard [apb_scoreboard] T#108 [READ PASS] ADDR=0x000003f8 RDATA=0x96177c19
# UVM_INFO ../seq/apb_wr_rd_seq.sv(56) @ 7525000: uvm_test_top.env.agent.sequencer@@wr_rd_seq [apb_wr_rd_seq] READ : ADDR=0x000003f8 RDATA=0x96177c19
# UVM_INFO ../env/apb_agent/apb_monitor.sv(71) @ 7605000: uvm_test_top.env.agent.monitor [apb_monitor] Collected: T#0 | UNKNOWN_SEQ | ADDR=0x00000454 WRITE=1 DATA=0x8a7875e4 RDATA=0xdeadbeef SLVERR=1 | WAIT=4 cycles
# UVM_WARNING ../env/apb_scoreboard.sv(51) @ 7605000: uvm_test_top.env.scoreboard [apb_scoreboard] T#109 [SLVERR] ADDR=0x00000454
# UVM_INFO ../seq/apb_wr_rd_seq.sv(41) @ 7605000: uvm_test_top.env.agent.sequencer@@wr_rd_seq [apb_wr_rd_seq] WRITE: ADDR=0x00000454 DATA=0x8a7875e4
# UVM_INFO ../env/apb_agent/apb_monitor.sv(71) @ 7645000: uvm_test_top.env.agent.monitor [apb_monitor] Collected: T#0 | UNKNOWN_SEQ | ADDR=0x00000454 WRITE=0 DATA=0xdeadbeef RDATA=0xdeadbeef SLVERR=1 | WAIT=0 cycles
# UVM_WARNING ../env/apb_scoreboard.sv(51) @ 7645000: uvm_test_top.env.scoreboard [apb_scoreboard] T#110 [SLVERR] ADDR=0x00000454
# UVM_INFO ../seq/apb_wr_rd_seq.sv(56) @ 7645000: uvm_test_top.env.agent.sequencer@@wr_rd_seq [apb_wr_rd_seq] READ : ADDR=0x00000454 RDATA=0xdeadbeef
# UVM_INFO ../env/apb_agent/apb_monitor.sv(71) @ 7765000: uvm_test_top.env.agent.monitor [apb_monitor] Collected: T#0 | UNKNOWN_SEQ | ADDR=0x000001b8 WRITE=1 DATA=0xc259ecf0 RDATA=0xdeadbeef SLVERR=0 | WAIT=8 cycles
# UVM_INFO ../seq/apb_wr_rd_seq.sv(41) @ 7765000: uvm_test_top.env.agent.sequencer@@wr_rd_seq [apb_wr_rd_seq] WRITE: ADDR=0x000001b8 DATA=0xc259ecf0
# UVM_INFO ../env/apb_agent/apb_monitor.sv(71) @ 7875000: uvm_test_top.env.agent.monitor [apb_monitor] Collected: T#0 | UNKNOWN_SEQ | ADDR=0x000001b8 WRITE=0 DATA=0xc259ecf0 RDATA=0xc259ecf0 SLVERR=0 | WAIT=7 cycles
# UVM_INFO ../env/apb_scoreboard.sv(73) @ 7875000: uvm_test_top.env.scoreboard [apb_scoreboard] T#112 [READ PASS] ADDR=0x000001b8 RDATA=0xc259ecf0
# UVM_INFO ../seq/apb_wr_rd_seq.sv(56) @ 7875000: uvm_test_top.env.agent.sequencer@@wr_rd_seq [apb_wr_rd_seq] READ : ADDR=0x000001b8 RDATA=0xc259ecf0
# UVM_INFO ../env/apb_agent/apb_monitor.sv(71) @ 7985000: uvm_test_top.env.agent.monitor [apb_monitor] Collected: T#0 | UNKNOWN_SEQ | ADDR=0x0000048c WRITE=1 DATA=0x767e86e2 RDATA=0xdeadbeef SLVERR=1 | WAIT=7 cycles
# UVM_WARNING ../env/apb_scoreboard.sv(51) @ 7985000: uvm_test_top.env.scoreboard [apb_scoreboard] T#113 [SLVERR] ADDR=0x0000048c
# UVM_INFO ../seq/apb_wr_rd_seq.sv(41) @ 7985000: uvm_test_top.env.agent.sequencer@@wr_rd_seq [apb_wr_rd_seq] WRITE: ADDR=0x0000048c DATA=0x767e86e2
# UVM_INFO ../env/apb_agent/apb_monitor.sv(71) @ 8085000: uvm_test_top.env.agent.monitor [apb_monitor] Collected: T#0 | UNKNOWN_SEQ | ADDR=0x0000048c WRITE=0 DATA=0xdeadbeef RDATA=0xdeadbeef SLVERR=1 | WAIT=6 cycles
# UVM_WARNING ../env/apb_scoreboard.sv(51) @ 8085000: uvm_test_top.env.scoreboard [apb_scoreboard] T#114 [SLVERR] ADDR=0x0000048c
# UVM_INFO ../seq/apb_wr_rd_seq.sv(56) @ 8085000: uvm_test_top.env.agent.sequencer@@wr_rd_seq [apb_wr_rd_seq] READ : ADDR=0x0000048c RDATA=0xdeadbeef
# UVM_INFO ../env/apb_agent/apb_monitor.sv(71) @ 8195000: uvm_test_top.env.agent.monitor [apb_monitor] Collected: T#0 | UNKNOWN_SEQ | ADDR=0x00000074 WRITE=1 DATA=0x8db287da RDATA=0xdeadbeef SLVERR=0 | WAIT=7 cycles
# UVM_INFO ../seq/apb_wr_rd_seq.sv(41) @ 8195000: uvm_test_top.env.agent.sequencer@@wr_rd_seq [apb_wr_rd_seq] WRITE: ADDR=0x00000074 DATA=0x8db287da
# UVM_INFO ../env/apb_agent/apb_monitor.sv(71) @ 8305000: uvm_test_top.env.agent.monitor [apb_monitor] Collected: T#0 | UNKNOWN_SEQ | ADDR=0x00000074 WRITE=0 DATA=0x8db287da RDATA=0x8db287da SLVERR=0 | WAIT=7 cycles
# UVM_INFO ../env/apb_scoreboard.sv(73) @ 8305000: uvm_test_top.env.scoreboard [apb_scoreboard] T#116 [READ PASS] ADDR=0x00000074 RDATA=0x8db287da
# UVM_INFO ../seq/apb_wr_rd_seq.sv(56) @ 8305000: uvm_test_top.env.agent.sequencer@@wr_rd_seq [apb_wr_rd_seq] READ : ADDR=0x00000074 RDATA=0x8db287da
# UVM_INFO ../env/apb_agent/apb_monitor.sv(71) @ 8415000: uvm_test_top.env.agent.monitor [apb_monitor] Collected: T#0 | UNKNOWN_SEQ | ADDR=0x00000344 WRITE=1 DATA=0xdf282bbb RDATA=0x8db287da SLVERR=0 | WAIT=7 cycles
# UVM_INFO ../seq/apb_wr_rd_seq.sv(41) @ 8415000: uvm_test_top.env.agent.sequencer@@wr_rd_seq [apb_wr_rd_seq] WRITE: ADDR=0x00000344 DATA=0xdf282bbb
# UVM_INFO ../env/apb_agent/apb_monitor.sv(71) @ 8515000: uvm_test_top.env.agent.monitor [apb_monitor] Collected: T#0 | UNKNOWN_SEQ | ADDR=0x00000344 WRITE=0 DATA=0xdf282bbb RDATA=0xdf282bbb SLVERR=0 | WAIT=6 cycles
# UVM_INFO ../env/apb_scoreboard.sv(73) @ 8515000: uvm_test_top.env.scoreboard [apb_scoreboard] T#118 [READ PASS] ADDR=0x00000344 RDATA=0xdf282bbb
# UVM_INFO ../seq/apb_wr_rd_seq.sv(56) @ 8515000: uvm_test_top.env.agent.sequencer@@wr_rd_seq [apb_wr_rd_seq] READ : ADDR=0x00000344 RDATA=0xdf282bbb
# UVM_INFO ../env/apb_agent/apb_monitor.sv(71) @ 8595000: uvm_test_top.env.agent.monitor [apb_monitor] Collected: T#0 | UNKNOWN_SEQ | ADDR=0x00000174 WRITE=1 DATA=0x260dcde7 RDATA=0xdf282bbb SLVERR=0 | WAIT=4 cycles
# UVM_INFO ../seq/apb_wr_rd_seq.sv(41) @ 8595000: uvm_test_top.env.agent.sequencer@@wr_rd_seq [apb_wr_rd_seq] WRITE: ADDR=0x00000174 DATA=0x260dcde7
# UVM_INFO ../env/apb_agent/apb_monitor.sv(71) @ 8655000: uvm_test_top.env.agent.monitor [apb_monitor] Collected: T#0 | UNKNOWN_SEQ | ADDR=0x00000174 WRITE=0 DATA=0x260dcde7 RDATA=0x260dcde7 SLVERR=0 | WAIT=2 cycles
# UVM_INFO ../env/apb_scoreboard.sv(73) @ 8655000: uvm_test_top.env.scoreboard [apb_scoreboard] T#120 [READ PASS] ADDR=0x00000174 RDATA=0x260dcde7
# UVM_INFO ../seq/apb_wr_rd_seq.sv(56) @ 8655000: uvm_test_top.env.agent.sequencer@@wr_rd_seq [apb_wr_rd_seq] READ : ADDR=0x00000174 RDATA=0x260dcde7
# UVM_INFO ../env/apb_agent/apb_monitor.sv(71) @ 8695000: uvm_test_top.env.agent.monitor [apb_monitor] Collected: T#0 | UNKNOWN_SEQ | ADDR=0x0000034c WRITE=1 DATA=0xaa927be5 RDATA=0x260dcde7 SLVERR=0 | WAIT=0 cycles
# UVM_INFO ../seq/apb_wr_rd_seq.sv(41) @ 8695000: uvm_test_top.env.agent.sequencer@@wr_rd_seq [apb_wr_rd_seq] WRITE: ADDR=0x0000034c DATA=0xaa927be5
# UVM_INFO ../env/apb_agent/apb_monitor.sv(71) @ 8805000: uvm_test_top.env.agent.monitor [apb_monitor] Collected: T#0 | UNKNOWN_SEQ | ADDR=0x0000034c WRITE=0 DATA=0xaa927be5 RDATA=0xaa927be5 SLVERR=0 | WAIT=7 cycles
# UVM_INFO ../env/apb_scoreboard.sv(73) @ 8805000: uvm_test_top.env.scoreboard [apb_scoreboard] T#122 [READ PASS] ADDR=0x0000034c RDATA=0xaa927be5
# UVM_INFO ../seq/apb_wr_rd_seq.sv(56) @ 8805000: uvm_test_top.env.agent.sequencer@@wr_rd_seq [apb_wr_rd_seq] READ : ADDR=0x0000034c RDATA=0xaa927be5
# UVM_INFO ../env/apb_agent/apb_monitor.sv(71) @ 8865000: uvm_test_top.env.agent.monitor [apb_monitor] Collected: T#0 | UNKNOWN_SEQ | ADDR=0x00000240 WRITE=1 DATA=0x34ab1a0d RDATA=0xaa927be5 SLVERR=0 | WAIT=2 cycles
# UVM_INFO ../seq/apb_wr_rd_seq.sv(41) @ 8865000: uvm_test_top.env.agent.sequencer@@wr_rd_seq [apb_wr_rd_seq] WRITE: ADDR=0x00000240 DATA=0x34ab1a0d
# UVM_INFO ../env/apb_agent/apb_monitor.sv(71) @ 8975000: uvm_test_top.env.agent.monitor [apb_monitor] Collected: T#0 | UNKNOWN_SEQ | ADDR=0x00000240 WRITE=0 DATA=0x34ab1a0d RDATA=0x34ab1a0d SLVERR=0 | WAIT=7 cycles
# UVM_INFO ../env/apb_scoreboard.sv(73) @ 8975000: uvm_test_top.env.scoreboard [apb_scoreboard] T#124 [READ PASS] ADDR=0x00000240 RDATA=0x34ab1a0d
# UVM_INFO ../seq/apb_wr_rd_seq.sv(56) @ 8975000: uvm_test_top.env.agent.sequencer@@wr_rd_seq [apb_wr_rd_seq] READ : ADDR=0x00000240 RDATA=0x34ab1a0d
# UVM_INFO ../env/apb_agent/apb_monitor.sv(71) @ 9065000: uvm_test_top.env.agent.monitor [apb_monitor] Collected: T#0 | UNKNOWN_SEQ | ADDR=0x0000043c WRITE=1 DATA=0x0fca3c45 RDATA=0xdeadbeef SLVERR=1 | WAIT=5 cycles
# UVM_WARNING ../env/apb_scoreboard.sv(51) @ 9065000: uvm_test_top.env.scoreboard [apb_scoreboard] T#125 [SLVERR] ADDR=0x0000043c
# UVM_INFO ../seq/apb_wr_rd_seq.sv(41) @ 9065000: uvm_test_top.env.agent.sequencer@@wr_rd_seq [apb_wr_rd_seq] WRITE: ADDR=0x0000043c DATA=0x0fca3c45
# UVM_INFO ../env/apb_agent/apb_monitor.sv(71) @ 9145000: uvm_test_top.env.agent.monitor [apb_monitor] Collected: T#0 | UNKNOWN_SEQ | ADDR=0x0000043c WRITE=0 DATA=0xdeadbeef RDATA=0xdeadbeef SLVERR=1 | WAIT=4 cycles
# UVM_WARNING ../env/apb_scoreboard.sv(51) @ 9145000: uvm_test_top.env.scoreboard [apb_scoreboard] T#126 [SLVERR] ADDR=0x0000043c
# UVM_INFO ../seq/apb_wr_rd_seq.sv(56) @ 9145000: uvm_test_top.env.agent.sequencer@@wr_rd_seq [apb_wr_rd_seq] READ : ADDR=0x0000043c RDATA=0xdeadbeef
# UVM_INFO ../env/apb_agent/apb_monitor.sv(71) @ 9205000: uvm_test_top.env.agent.monitor [apb_monitor] Collected: T#0 | UNKNOWN_SEQ | ADDR=0x000002f8 WRITE=1 DATA=0xc32dc2c7 RDATA=0xdeadbeef SLVERR=0 | WAIT=2 cycles
# UVM_INFO ../seq/apb_wr_rd_seq.sv(41) @ 9205000: uvm_test_top.env.agent.sequencer@@wr_rd_seq [apb_wr_rd_seq] WRITE: ADDR=0x000002f8 DATA=0xc32dc2c7
# UVM_INFO ../env/apb_agent/apb_monitor.sv(71) @ 9265000: uvm_test_top.env.agent.monitor [apb_monitor] Collected: T#0 | UNKNOWN_SEQ | ADDR=0x000002f8 WRITE=0 DATA=0xc32dc2c7 RDATA=0xc32dc2c7 SLVERR=0 | WAIT=2 cycles
# UVM_INFO ../env/apb_scoreboard.sv(73) @ 9265000: uvm_test_top.env.scoreboard [apb_scoreboard] T#128 [READ PASS] ADDR=0x000002f8 RDATA=0xc32dc2c7
# UVM_INFO ../seq/apb_wr_rd_seq.sv(56) @ 9265000: uvm_test_top.env.agent.sequencer@@wr_rd_seq [apb_wr_rd_seq] READ : ADDR=0x000002f8 RDATA=0xc32dc2c7
# UVM_INFO ../env/apb_agent/apb_monitor.sv(71) @ 9305000: uvm_test_top.env.agent.monitor [apb_monitor] Collected: T#0 | UNKNOWN_SEQ | ADDR=0x000000d8 WRITE=1 DATA=0x44dd546f RDATA=0xc32dc2c7 SLVERR=0 | WAIT=0 cycles
# UVM_INFO ../seq/apb_write_seq.sv(34) @ 9305000: uvm_test_top.env.agent.sequencer@@write_seq [apb_write_seq] TASK WRITE: Sent Write: ADDR = 0x000000d8, DATA = 0x44dd546f
# UVM_INFO ../env/apb_agent/apb_monitor.sv(71) @ 9385000: uvm_test_top.env.agent.monitor [apb_monitor] Collected: T#0 | UNKNOWN_SEQ | ADDR=0x00000290 WRITE=1 DATA=0x2b610c68 RDATA=0xc32dc2c7 SLVERR=0 | WAIT=4 cycles
# UVM_INFO ../seq/apb_write_seq.sv(34) @ 9385000: uvm_test_top.env.agent.sequencer@@write_seq [apb_write_seq] TASK WRITE: Sent Write: ADDR = 0x00000290, DATA = 0x2b610c68
# UVM_INFO ../env/apb_agent/apb_monitor.sv(71) @ 9475000: uvm_test_top.env.agent.monitor [apb_monitor] Collected: T#0 | UNKNOWN_SEQ | ADDR=0x000003e8 WRITE=1 DATA=0x12df7f9d RDATA=0xc32dc2c7 SLVERR=0 | WAIT=5 cycles
# UVM_INFO ../seq/apb_write_seq.sv(34) @ 9475000: uvm_test_top.env.agent.sequencer@@write_seq [apb_write_seq] TASK WRITE: Sent Write: ADDR = 0x000003e8, DATA = 0x12df7f9d
# UVM_INFO ../env/apb_agent/apb_monitor.sv(71) @ 9555000: uvm_test_top.env.agent.monitor [apb_monitor] Collected: T#0 | UNKNOWN_SEQ | ADDR=0x00000128 WRITE=1 DATA=0x2ad93e89 RDATA=0xc32dc2c7 SLVERR=0 | WAIT=4 cycles
# UVM_INFO ../seq/apb_write_seq.sv(34) @ 9555000: uvm_test_top.env.agent.sequencer@@write_seq [apb_write_seq] TASK WRITE: Sent Write: ADDR = 0x00000128, DATA = 0x2ad93e89
# UVM_INFO ../env/apb_agent/apb_monitor.sv(71) @ 9605000: uvm_test_top.env.agent.monitor [apb_monitor] Collected: T#0 | UNKNOWN_SEQ | ADDR=0x000002a0 WRITE=1 DATA=0x98019fa7 RDATA=0xc32dc2c7 SLVERR=0 | WAIT=1 cycles
# UVM_INFO ../seq/apb_write_seq.sv(34) @ 9605000: uvm_test_top.env.agent.sequencer@@write_seq [apb_write_seq] TASK WRITE: Sent Write: ADDR = 0x000002a0, DATA = 0x98019fa7
# UVM_INFO ../env/apb_agent/apb_monitor.sv(71) @ 9705000: uvm_test_top.env.agent.monitor [apb_monitor] Collected: T#0 | UNKNOWN_SEQ | ADDR=0x000004c0 WRITE=1 DATA=0xfa15badc RDATA=0xdeadbeef SLVERR=1 | WAIT=6 cycles
# UVM_WARNING ../env/apb_scoreboard.sv(51) @ 9705000: uvm_test_top.env.scoreboard [apb_scoreboard] T#134 [SLVERR] ADDR=0x000004c0
# UVM_INFO ../seq/apb_write_seq.sv(34) @ 9705000: uvm_test_top.env.agent.sequencer@@write_seq [apb_write_seq] TASK WRITE: Sent Write: ADDR = 0x000004c0, DATA = 0xfa15badc
# UVM_INFO ../env/apb_agent/apb_monitor.sv(71) @ 9805000: uvm_test_top.env.agent.monitor [apb_monitor] Collected: T#0 | UNKNOWN_SEQ | ADDR=0x0000040c WRITE=1 DATA=0x07212984 RDATA=0xdeadbeef SLVERR=1 | WAIT=6 cycles
# UVM_WARNING ../env/apb_scoreboard.sv(51) @ 9805000: uvm_test_top.env.scoreboard [apb_scoreboard] T#135 [SLVERR] ADDR=0x0000040c
# UVM_INFO ../seq/apb_write_seq.sv(34) @ 9805000: uvm_test_top.env.agent.sequencer@@write_seq [apb_write_seq] TASK WRITE: Sent Write: ADDR = 0x0000040c, DATA = 0x07212984
# UVM_INFO ../env/apb_agent/apb_monitor.sv(71) @ 9855000: uvm_test_top.env.agent.monitor [apb_monitor] Collected: T#0 | UNKNOWN_SEQ | ADDR=0x00000410 WRITE=1 DATA=0x3289d897 RDATA=0xdeadbeef SLVERR=1 | WAIT=1 cycles
# UVM_WARNING ../env/apb_scoreboard.sv(51) @ 9855000: uvm_test_top.env.scoreboard [apb_scoreboard] T#136 [SLVERR] ADDR=0x00000410
# UVM_INFO ../seq/apb_write_seq.sv(34) @ 9855000: uvm_test_top.env.agent.sequencer@@write_seq [apb_write_seq] TASK WRITE: Sent Write: ADDR = 0x00000410, DATA = 0x3289d897
# UVM_INFO ../env/apb_agent/apb_monitor.sv(71) @ 9945000: uvm_test_top.env.agent.monitor [apb_monitor] Collected: T#0 | UNKNOWN_SEQ | ADDR=0x00000298 WRITE=1 DATA=0x31f5e8fe RDATA=0xdeadbeef SLVERR=0 | WAIT=5 cycles
# UVM_INFO ../seq/apb_write_seq.sv(34) @ 9945000: uvm_test_top.env.agent.sequencer@@write_seq [apb_write_seq] TASK WRITE: Sent Write: ADDR = 0x00000298, DATA = 0x31f5e8fe
# UVM_INFO ../env/apb_agent/apb_monitor.sv(71) @ 10025000: uvm_test_top.env.agent.monitor [apb_monitor] Collected: T#0 | UNKNOWN_SEQ | ADDR=0x000004fc WRITE=1 DATA=0xc6d5a30f RDATA=0xdeadbeef SLVERR=1 | WAIT=4 cycles
# UVM_WARNING ../env/apb_scoreboard.sv(51) @ 10025000: uvm_test_top.env.scoreboard [apb_scoreboard] T#138 [SLVERR] ADDR=0x000004fc
# UVM_INFO ../seq/apb_write_seq.sv(34) @ 10025000: uvm_test_top.env.agent.sequencer@@write_seq [apb_write_seq] TASK WRITE: Sent Write: ADDR = 0x000004fc, DATA = 0xc6d5a30f
# UVM_INFO ../env/apb_agent/apb_monitor.sv(71) @ 10115000: uvm_test_top.env.agent.monitor [apb_monitor] Collected: T#0 | UNKNOWN_SEQ | ADDR=0x000003cc WRITE=1 DATA=0x610d903c RDATA=0xdeadbeef SLVERR=0 | WAIT=5 cycles
# UVM_INFO ../seq/apb_write_seq.sv(34) @ 10115000: uvm_test_top.env.agent.sequencer@@write_seq [apb_write_seq] TASK WRITE: Sent Write: ADDR = 0x000003cc, DATA = 0x610d903c
# UVM_INFO ../env/apb_agent/apb_monitor.sv(71) @ 10195000: uvm_test_top.env.agent.monitor [apb_monitor] Collected: T#0 | UNKNOWN_SEQ | ADDR=0x000004a4 WRITE=1 DATA=0x2ad44865 RDATA=0xdeadbeef SLVERR=1 | WAIT=4 cycles
# UVM_WARNING ../env/apb_scoreboard.sv(51) @ 10195000: uvm_test_top.env.scoreboard [apb_scoreboard] T#140 [SLVERR] ADDR=0x000004a4
# UVM_INFO ../seq/apb_write_seq.sv(34) @ 10195000: uvm_test_top.env.agent.sequencer@@write_seq [apb_write_seq] TASK WRITE: Sent Write: ADDR = 0x000004a4, DATA = 0x2ad44865
# UVM_INFO ../env/apb_agent/apb_monitor.sv(71) @ 10265000: uvm_test_top.env.agent.monitor [apb_monitor] Collected: T#0 | UNKNOWN_SEQ | ADDR=0x0000044c WRITE=1 DATA=0xc3855387 RDATA=0xdeadbeef SLVERR=1 | WAIT=3 cycles
# UVM_WARNING ../env/apb_scoreboard.sv(51) @ 10265000: uvm_test_top.env.scoreboard [apb_scoreboard] T#141 [SLVERR] ADDR=0x0000044c
# UVM_INFO ../seq/apb_write_seq.sv(34) @ 10265000: uvm_test_top.env.agent.sequencer@@write_seq [apb_write_seq] TASK WRITE: Sent Write: ADDR = 0x0000044c, DATA = 0xc3855387
# UVM_INFO ../env/apb_agent/apb_monitor.sv(71) @ 10355000: uvm_test_top.env.agent.monitor [apb_monitor] Collected: T#0 | UNKNOWN_SEQ | ADDR=0x000003b4 WRITE=1 DATA=0x0928a5c6 RDATA=0xdeadbeef SLVERR=0 | WAIT=5 cycles
# UVM_INFO ../seq/apb_write_seq.sv(34) @ 10355000: uvm_test_top.env.agent.sequencer@@write_seq [apb_write_seq] TASK WRITE: Sent Write: ADDR = 0x000003b4, DATA = 0x0928a5c6
# UVM_INFO ../env/apb_agent/apb_monitor.sv(71) @ 10465000: uvm_test_top.env.agent.monitor [apb_monitor] Collected: T#0 | UNKNOWN_SEQ | ADDR=0x00000234 WRITE=1 DATA=0xceb340b6 RDATA=0xdeadbeef SLVERR=0 | WAIT=7 cycles
# UVM_INFO ../seq/apb_write_seq.sv(34) @ 10465000: uvm_test_top.env.agent.sequencer@@write_seq [apb_write_seq] TASK WRITE: Sent Write: ADDR = 0x00000234, DATA = 0xceb340b6
# UVM_INFO ../env/apb_agent/apb_monitor.sv(71) @ 10505000: uvm_test_top.env.agent.monitor [apb_monitor] Collected: T#0 | UNKNOWN_SEQ | ADDR=0x00000114 WRITE=1 DATA=0xb502adb5 RDATA=0xdeadbeef SLVERR=0 | WAIT=0 cycles
# UVM_INFO ../seq/apb_write_seq.sv(34) @ 10505000: uvm_test_top.env.agent.sequencer@@write_seq [apb_write_seq] TASK WRITE: Sent Write: ADDR = 0x00000114, DATA = 0xb502adb5
# UVM_INFO ../env/apb_agent/apb_monitor.sv(71) @ 10575000: uvm_test_top.env.agent.monitor [apb_monitor] Collected: T#0 | UNKNOWN_SEQ | ADDR=0x00000354 WRITE=0 DATA=0x00000000 RDATA=0x00000000 SLVERR=0 | WAIT=3 cycles
# UVM_INFO ../env/apb_scoreboard.sv(73) @ 10575000: uvm_test_top.env.scoreboard [apb_scoreboard] T#145 [READ PASS] ADDR=0x00000354 RDATA=0x00000000
# UVM_INFO ../seq/apb_read_seq.sv(38) @ 10575000: uvm_test_top.env.agent.sequencer@@read_seq [apb_read_seq] TASK READ DATA : Sent Read: ADDR=0x00000354
# UVM_INFO ../env/apb_agent/apb_monitor.sv(71) @ 10665000: uvm_test_top.env.agent.monitor [apb_monitor] Collected: T#0 | UNKNOWN_SEQ | ADDR=0x000003c0 WRITE=0 DATA=0x00000000 RDATA=0x00000000 SLVERR=0 | WAIT=5 cycles
# UVM_INFO ../env/apb_scoreboard.sv(73) @ 10665000: uvm_test_top.env.scoreboard [apb_scoreboard] T#146 [READ PASS] ADDR=0x000003c0 RDATA=0x00000000
# UVM_INFO ../seq/apb_read_seq.sv(38) @ 10665000: uvm_test_top.env.agent.sequencer@@read_seq [apb_read_seq] TASK READ DATA : Sent Read: ADDR=0x000003c0
# UVM_INFO ../env/apb_agent/apb_monitor.sv(71) @ 10725000: uvm_test_top.env.agent.monitor [apb_monitor] Collected: T#0 | UNKNOWN_SEQ | ADDR=0x0000001c WRITE=0 DATA=0x00000000 RDATA=0x00000000 SLVERR=0 | WAIT=2 cycles
# UVM_INFO ../env/apb_scoreboard.sv(73) @ 10725000: uvm_test_top.env.scoreboard [apb_scoreboard] T#147 [READ PASS] ADDR=0x0000001c RDATA=0x00000000
# UVM_INFO ../seq/apb_read_seq.sv(38) @ 10725000: uvm_test_top.env.agent.sequencer@@read_seq [apb_read_seq] TASK READ DATA : Sent Read: ADDR=0x0000001c
# UVM_INFO ../env/apb_agent/apb_monitor.sv(71) @ 10815000: uvm_test_top.env.agent.monitor [apb_monitor] Collected: T#0 | UNKNOWN_SEQ | ADDR=0x00000074 WRITE=0 DATA=0x8db287da RDATA=0x8db287da SLVERR=0 | WAIT=5 cycles
# UVM_INFO ../env/apb_scoreboard.sv(73) @ 10815000: uvm_test_top.env.scoreboard [apb_scoreboard] T#148 [READ PASS] ADDR=0x00000074 RDATA=0x8db287da
# UVM_INFO ../seq/apb_read_seq.sv(38) @ 10815000: uvm_test_top.env.agent.sequencer@@read_seq [apb_read_seq] TASK READ DATA : Sent Read: ADDR=0x00000074
# UVM_INFO ../env/apb_agent/apb_monitor.sv(71) @ 10865000: uvm_test_top.env.agent.monitor [apb_monitor] Collected: T#0 | UNKNOWN_SEQ | ADDR=0x000001b4 WRITE=0 DATA=0x00000000 RDATA=0x00000000 SLVERR=0 | WAIT=1 cycles
# UVM_INFO ../env/apb_scoreboard.sv(73) @ 10865000: uvm_test_top.env.scoreboard [apb_scoreboard] T#149 [READ PASS] ADDR=0x000001b4 RDATA=0x00000000
# UVM_INFO ../seq/apb_read_seq.sv(38) @ 10865000: uvm_test_top.env.agent.sequencer@@read_seq [apb_read_seq] TASK READ DATA : Sent Read: ADDR=0x000001b4
# UVM_INFO ../env/apb_agent/apb_monitor.sv(71) @ 10965000: uvm_test_top.env.agent.monitor [apb_monitor] Collected: T#0 | UNKNOWN_SEQ | ADDR=0x00000230 WRITE=0 DATA=0x00000000 RDATA=0x00000000 SLVERR=0 | WAIT=6 cycles
# UVM_INFO ../env/apb_scoreboard.sv(73) @ 10965000: uvm_test_top.env.scoreboard [apb_scoreboard] T#150 [READ PASS] ADDR=0x00000230 RDATA=0x00000000
# UVM_INFO ../seq/apb_read_seq.sv(38) @ 10965000: uvm_test_top.env.agent.sequencer@@read_seq [apb_read_seq] TASK READ DATA : Sent Read: ADDR=0x00000230
# UVM_INFO ../env/apb_agent/apb_monitor.sv(71) @ 11055000: uvm_test_top.env.agent.monitor [apb_monitor] Collected: T#0 | UNKNOWN_SEQ | ADDR=0x00000014 WRITE=0 DATA=0x00000000 RDATA=0x00000000 SLVERR=0 | WAIT=5 cycles
# UVM_INFO ../env/apb_scoreboard.sv(73) @ 11055000: uvm_test_top.env.scoreboard [apb_scoreboard] T#151 [READ PASS] ADDR=0x00000014 RDATA=0x00000000
# UVM_INFO ../seq/apb_read_seq.sv(38) @ 11055000: uvm_test_top.env.agent.sequencer@@read_seq [apb_read_seq] TASK READ DATA : Sent Read: ADDR=0x00000014
# UVM_INFO ../env/apb_agent/apb_monitor.sv(71) @ 11135000: uvm_test_top.env.agent.monitor [apb_monitor] Collected: T#0 | UNKNOWN_SEQ | ADDR=0x0000040c WRITE=0 DATA=0xdeadbeef RDATA=0xdeadbeef SLVERR=1 | WAIT=4 cycles
# UVM_WARNING ../env/apb_scoreboard.sv(51) @ 11135000: uvm_test_top.env.scoreboard [apb_scoreboard] T#152 [SLVERR] ADDR=0x0000040c
# UVM_INFO ../seq/apb_read_seq.sv(38) @ 11135000: uvm_test_top.env.agent.sequencer@@read_seq [apb_read_seq] TASK READ DATA : Sent Read: ADDR=0x0000040c
# UVM_INFO ../env/apb_agent/apb_monitor.sv(71) @ 11175000: uvm_test_top.env.agent.monitor [apb_monitor] Collected: T#0 | UNKNOWN_SEQ | ADDR=0x0000021c WRITE=0 DATA=0x00000000 RDATA=0x00000000 SLVERR=0 | WAIT=0 cycles
# UVM_INFO ../env/apb_scoreboard.sv(73) @ 11175000: uvm_test_top.env.scoreboard [apb_scoreboard] T#153 [READ PASS] ADDR=0x0000021c RDATA=0x00000000
# UVM_INFO ../seq/apb_read_seq.sv(38) @ 11175000: uvm_test_top.env.agent.sequencer@@read_seq [apb_read_seq] TASK READ DATA : Sent Read: ADDR=0x0000021c
# UVM_INFO ../env/apb_agent/apb_monitor.sv(71) @ 11245000: uvm_test_top.env.agent.monitor [apb_monitor] Collected: T#0 | UNKNOWN_SEQ | ADDR=0x00000134 WRITE=0 DATA=0x00000000 RDATA=0x00000000 SLVERR=0 | WAIT=3 cycles
# UVM_INFO ../env/apb_scoreboard.sv(73) @ 11245000: uvm_test_top.env.scoreboard [apb_scoreboard] T#154 [READ PASS] ADDR=0x00000134 RDATA=0x00000000
# UVM_INFO ../seq/apb_read_seq.sv(38) @ 11245000: uvm_test_top.env.agent.sequencer@@read_seq [apb_read_seq] TASK READ DATA : Sent Read: ADDR=0x00000134
# UVM_INFO ../env/apb_agent/apb_monitor.sv(71) @ 11345000: uvm_test_top.env.agent.monitor [apb_monitor] Collected: T#0 | UNKNOWN_SEQ | ADDR=0x000003d0 WRITE=0 DATA=0x00000000 RDATA=0x00000000 SLVERR=0 | WAIT=6 cycles
# UVM_INFO ../env/apb_scoreboard.sv(73) @ 11345000: uvm_test_top.env.scoreboard [apb_scoreboard] T#155 [READ PASS] ADDR=0x000003d0 RDATA=0x00000000
# UVM_INFO ../seq/apb_read_seq.sv(38) @ 11345000: uvm_test_top.env.agent.sequencer@@read_seq [apb_read_seq] TASK READ DATA : Sent Read: ADDR=0x000003d0
# UVM_INFO ../env/apb_agent/apb_monitor.sv(71) @ 11455000: uvm_test_top.env.agent.monitor [apb_monitor] Collected: T#0 | UNKNOWN_SEQ | ADDR=0x00000008 WRITE=0 DATA=0x00000000 RDATA=0x00000000 SLVERR=0 | WAIT=7 cycles
# UVM_INFO ../env/apb_scoreboard.sv(73) @ 11455000: uvm_test_top.env.scoreboard [apb_scoreboard] T#156 [READ PASS] ADDR=0x00000008 RDATA=0x00000000
# UVM_INFO ../seq/apb_read_seq.sv(38) @ 11455000: uvm_test_top.env.agent.sequencer@@read_seq [apb_read_seq] TASK READ DATA : Sent Read: ADDR=0x00000008
# UVM_INFO ../env/apb_agent/apb_monitor.sv(71) @ 11505000: uvm_test_top.env.agent.monitor [apb_monitor] Collected: T#0 | UNKNOWN_SEQ | ADDR=0x000004c0 WRITE=0 DATA=0xdeadbeef RDATA=0xdeadbeef SLVERR=1 | WAIT=1 cycles
# UVM_WARNING ../env/apb_scoreboard.sv(51) @ 11505000: uvm_test_top.env.scoreboard [apb_scoreboard] T#157 [SLVERR] ADDR=0x000004c0
# UVM_INFO ../seq/apb_read_seq.sv(38) @ 11505000: uvm_test_top.env.agent.sequencer@@read_seq [apb_read_seq] TASK READ DATA : Sent Read: ADDR=0x000004c0
# UVM_INFO ../env/apb_agent/apb_monitor.sv(71) @ 11605000: uvm_test_top.env.agent.monitor [apb_monitor] Collected: T#0 | UNKNOWN_SEQ | ADDR=0x00000068 WRITE=0 DATA=0x00000000 RDATA=0x00000000 SLVERR=0 | WAIT=6 cycles
# UVM_INFO ../env/apb_scoreboard.sv(73) @ 11605000: uvm_test_top.env.scoreboard [apb_scoreboard] T#158 [READ PASS] ADDR=0x00000068 RDATA=0x00000000
# UVM_INFO ../seq/apb_read_seq.sv(38) @ 11605000: uvm_test_top.env.agent.sequencer@@read_seq [apb_read_seq] TASK READ DATA : Sent Read: ADDR=0x00000068
# UVM_INFO ../env/apb_agent/apb_monitor.sv(71) @ 11645000: uvm_test_top.env.agent.monitor [apb_monitor] Collected: T#0 | UNKNOWN_SEQ | ADDR=0x000002e0 WRITE=0 DATA=0x00000000 RDATA=0x00000000 SLVERR=0 | WAIT=0 cycles
# UVM_INFO ../env/apb_scoreboard.sv(73) @ 11645000: uvm_test_top.env.scoreboard [apb_scoreboard] T#159 [READ PASS] ADDR=0x000002e0 RDATA=0x00000000
# UVM_INFO ../seq/apb_read_seq.sv(38) @ 11645000: uvm_test_top.env.agent.sequencer@@read_seq [apb_read_seq] TASK READ DATA : Sent Read: ADDR=0x000002e0
# UVM_INFO ../env/apb_agent/apb_monitor.sv(71) @ 11755000: uvm_test_top.env.agent.monitor [apb_monitor] Collected: T#0 | UNKNOWN_SEQ | ADDR=0x0000024c WRITE=0 DATA=0x00000000 RDATA=0x00000000 SLVERR=0 | WAIT=7 cycles
# UVM_INFO ../env/apb_scoreboard.sv(73) @ 11755000: uvm_test_top.env.scoreboard [apb_scoreboard] T#160 [READ PASS] ADDR=0x0000024c RDATA=0x00000000
# UVM_INFO ../seq/apb_read_seq.sv(38) @ 11755000: uvm_test_top.env.agent.sequencer@@read_seq [apb_read_seq] TASK READ DATA : Sent Read: ADDR=0x0000024c
# UVM_INFO ../env/apb_agent/apb_monitor.sv(71) @ 11835000: uvm_test_top.env.agent.monitor [apb_monitor] Collected: T#0 | UNKNOWN_SEQ | ADDR=0x0000025c WRITE=1 DATA=0x6c9716a7 RDATA=0x00000000 SLVERR=0 | WAIT=4 cycles
# UVM_INFO ../seq/apb_wr_rd_seq.sv(41) @ 11835000: uvm_test_top.env.agent.sequencer@@wr_rd_seq [apb_wr_rd_seq] WRITE: ADDR=0x0000025c DATA=0x6c9716a7
# UVM_INFO ../env/apb_agent/apb_monitor.sv(71) @ 11895000: uvm_test_top.env.agent.monitor [apb_monitor] Collected: T#0 | UNKNOWN_SEQ | ADDR=0x0000025c WRITE=0 DATA=0x6c9716a7 RDATA=0x6c9716a7 SLVERR=0 | WAIT=2 cycles
# UVM_INFO ../env/apb_scoreboard.sv(73) @ 11895000: uvm_test_top.env.scoreboard [apb_scoreboard] T#162 [READ PASS] ADDR=0x0000025c RDATA=0x6c9716a7
# UVM_INFO ../seq/apb_wr_rd_seq.sv(56) @ 11895000: uvm_test_top.env.agent.sequencer@@wr_rd_seq [apb_wr_rd_seq] READ : ADDR=0x0000025c RDATA=0x6c9716a7
# UVM_INFO ../env/apb_agent/apb_monitor.sv(71) @ 11955000: uvm_test_top.env.agent.monitor [apb_monitor] Collected: T#0 | UNKNOWN_SEQ | ADDR=0x00000428 WRITE=1 DATA=0xf1575b6c RDATA=0xdeadbeef SLVERR=1 | WAIT=2 cycles
# UVM_WARNING ../env/apb_scoreboard.sv(51) @ 11955000: uvm_test_top.env.scoreboard [apb_scoreboard] T#163 [SLVERR] ADDR=0x00000428
# UVM_INFO ../seq/apb_wr_rd_seq.sv(41) @ 11955000: uvm_test_top.env.agent.sequencer@@wr_rd_seq [apb_wr_rd_seq] WRITE: ADDR=0x00000428 DATA=0xf1575b6c
# UVM_INFO ../env/apb_agent/apb_monitor.sv(71) @ 12015000: uvm_test_top.env.agent.monitor [apb_monitor] Collected: T#0 | UNKNOWN_SEQ | ADDR=0x00000428 WRITE=0 DATA=0xdeadbeef RDATA=0xdeadbeef SLVERR=1 | WAIT=2 cycles
# UVM_WARNING ../env/apb_scoreboard.sv(51) @ 12015000: uvm_test_top.env.scoreboard [apb_scoreboard] T#164 [SLVERR] ADDR=0x00000428
# UVM_INFO ../seq/apb_wr_rd_seq.sv(56) @ 12015000: uvm_test_top.env.agent.sequencer@@wr_rd_seq [apb_wr_rd_seq] READ : ADDR=0x00000428 RDATA=0xdeadbeef
# UVM_INFO ../env/apb_agent/apb_monitor.sv(71) @ 12055000: uvm_test_top.env.agent.monitor [apb_monitor] Collected: T#0 | UNKNOWN_SEQ | ADDR=0x0000030c WRITE=1 DATA=0x6625851f RDATA=0xdeadbeef SLVERR=0 | WAIT=0 cycles
# UVM_INFO ../seq/apb_wr_rd_seq.sv(41) @ 12055000: uvm_test_top.env.agent.sequencer@@wr_rd_seq [apb_wr_rd_seq] WRITE: ADDR=0x0000030c DATA=0x6625851f
# UVM_INFO ../env/apb_agent/apb_monitor.sv(71) @ 12165000: uvm_test_top.env.agent.monitor [apb_monitor] Collected: T#0 | UNKNOWN_SEQ | ADDR=0x0000030c WRITE=0 DATA=0x6625851f RDATA=0x6625851f SLVERR=0 | WAIT=7 cycles
# UVM_INFO ../env/apb_scoreboard.sv(73) @ 12165000: uvm_test_top.env.scoreboard [apb_scoreboard] T#166 [READ PASS] ADDR=0x0000030c RDATA=0x6625851f
# UVM_INFO ../seq/apb_wr_rd_seq.sv(56) @ 12165000: uvm_test_top.env.agent.sequencer@@wr_rd_seq [apb_wr_rd_seq] READ : ADDR=0x0000030c RDATA=0x6625851f
# UVM_INFO ../env/apb_agent/apb_monitor.sv(71) @ 12215000: uvm_test_top.env.agent.monitor [apb_monitor] Collected: T#0 | UNKNOWN_SEQ | ADDR=0x000004e4 WRITE=1 DATA=0x8a7c4547 RDATA=0xdeadbeef SLVERR=1 | WAIT=1 cycles
# UVM_WARNING ../env/apb_scoreboard.sv(51) @ 12215000: uvm_test_top.env.scoreboard [apb_scoreboard] T#167 [SLVERR] ADDR=0x000004e4
# UVM_INFO ../seq/apb_wr_rd_seq.sv(41) @ 12215000: uvm_test_top.env.agent.sequencer@@wr_rd_seq [apb_wr_rd_seq] WRITE: ADDR=0x000004e4 DATA=0x8a7c4547
# UVM_INFO ../env/apb_agent/apb_monitor.sv(71) @ 12255000: uvm_test_top.env.agent.monitor [apb_monitor] Collected: T#0 | UNKNOWN_SEQ | ADDR=0x000004e4 WRITE=0 DATA=0xdeadbeef RDATA=0xdeadbeef SLVERR=1 | WAIT=0 cycles
# UVM_WARNING ../env/apb_scoreboard.sv(51) @ 12255000: uvm_test_top.env.scoreboard [apb_scoreboard] T#168 [SLVERR] ADDR=0x000004e4
# UVM_INFO ../seq/apb_wr_rd_seq.sv(56) @ 12255000: uvm_test_top.env.agent.sequencer@@wr_rd_seq [apb_wr_rd_seq] READ : ADDR=0x000004e4 RDATA=0xdeadbeef
# UVM_INFO ../env/apb_agent/apb_monitor.sv(71) @ 12305000: uvm_test_top.env.agent.monitor [apb_monitor] Collected: T#0 | UNKNOWN_SEQ | ADDR=0x0000044c WRITE=1 DATA=0x3d5fdf36 RDATA=0xdeadbeef SLVERR=1 | WAIT=1 cycles
# UVM_WARNING ../env/apb_scoreboard.sv(51) @ 12305000: uvm_test_top.env.scoreboard [apb_scoreboard] T#169 [SLVERR] ADDR=0x0000044c
# UVM_INFO ../seq/apb_wr_rd_seq.sv(41) @ 12305000: uvm_test_top.env.agent.sequencer@@wr_rd_seq [apb_wr_rd_seq] WRITE: ADDR=0x0000044c DATA=0x3d5fdf36
# UVM_INFO ../env/apb_agent/apb_monitor.sv(71) @ 12395000: uvm_test_top.env.agent.monitor [apb_monitor] Collected: T#0 | UNKNOWN_SEQ | ADDR=0x0000044c WRITE=0 DATA=0xdeadbeef RDATA=0xdeadbeef SLVERR=1 | WAIT=5 cycles
# UVM_WARNING ../env/apb_scoreboard.sv(51) @ 12395000: uvm_test_top.env.scoreboard [apb_scoreboard] T#170 [SLVERR] ADDR=0x0000044c
# UVM_INFO ../seq/apb_wr_rd_seq.sv(56) @ 12395000: uvm_test_top.env.agent.sequencer@@wr_rd_seq [apb_wr_rd_seq] READ : ADDR=0x0000044c RDATA=0xdeadbeef
# UVM_INFO ../env/apb_agent/apb_monitor.sv(71) @ 12435000: uvm_test_top.env.agent.monitor [apb_monitor] Collected: T#0 | UNKNOWN_SEQ | ADDR=0x0000026c WRITE=1 DATA=0x03f3e4d8 RDATA=0xdeadbeef SLVERR=0 | WAIT=0 cycles
# UVM_INFO ../seq/apb_wr_rd_seq.sv(41) @ 12435000: uvm_test_top.env.agent.sequencer@@wr_rd_seq [apb_wr_rd_seq] WRITE: ADDR=0x0000026c DATA=0x03f3e4d8
# UVM_INFO ../env/apb_agent/apb_monitor.sv(71) @ 12545000: uvm_test_top.env.agent.monitor [apb_monitor] Collected: T#0 | UNKNOWN_SEQ | ADDR=0x0000026c WRITE=0 DATA=0x03f3e4d8 RDATA=0x03f3e4d8 SLVERR=0 | WAIT=7 cycles
# UVM_INFO ../env/apb_scoreboard.sv(73) @ 12545000: uvm_test_top.env.scoreboard [apb_scoreboard] T#172 [READ PASS] ADDR=0x0000026c RDATA=0x03f3e4d8
# UVM_INFO ../seq/apb_wr_rd_seq.sv(56) @ 12545000: uvm_test_top.env.agent.sequencer@@wr_rd_seq [apb_wr_rd_seq] READ : ADDR=0x0000026c RDATA=0x03f3e4d8
# UVM_INFO ../env/apb_agent/apb_monitor.sv(71) @ 12585000: uvm_test_top.env.agent.monitor [apb_monitor] Collected: T#0 | UNKNOWN_SEQ | ADDR=0x000000b8 WRITE=1 DATA=0x9d2db0e5 RDATA=0x03f3e4d8 SLVERR=0 | WAIT=0 cycles
# UVM_INFO ../seq/apb_wr_rd_seq.sv(41) @ 12585000: uvm_test_top.env.agent.sequencer@@wr_rd_seq [apb_wr_rd_seq] WRITE: ADDR=0x000000b8 DATA=0x9d2db0e5
# UVM_INFO ../env/apb_agent/apb_monitor.sv(71) @ 12625000: uvm_test_top.env.agent.monitor [apb_monitor] Collected: T#0 | UNKNOWN_SEQ | ADDR=0x000000b8 WRITE=0 DATA=0x9d2db0e5 RDATA=0x9d2db0e5 SLVERR=0 | WAIT=0 cycles
# UVM_INFO ../env/apb_scoreboard.sv(73) @ 12625000: uvm_test_top.env.scoreboard [apb_scoreboard] T#174 [READ PASS] ADDR=0x000000b8 RDATA=0x9d2db0e5
# UVM_INFO ../seq/apb_wr_rd_seq.sv(56) @ 12625000: uvm_test_top.env.agent.sequencer@@wr_rd_seq [apb_wr_rd_seq] READ : ADDR=0x000000b8 RDATA=0x9d2db0e5
# UVM_INFO ../env/apb_agent/apb_monitor.sv(71) @ 12705000: uvm_test_top.env.agent.monitor [apb_monitor] Collected: T#0 | UNKNOWN_SEQ | ADDR=0x000004d0 WRITE=1 DATA=0x8ca7e666 RDATA=0xdeadbeef SLVERR=1 | WAIT=4 cycles
# UVM_WARNING ../env/apb_scoreboard.sv(51) @ 12705000: uvm_test_top.env.scoreboard [apb_scoreboard] T#175 [SLVERR] ADDR=0x000004d0
# UVM_INFO ../seq/apb_wr_rd_seq.sv(41) @ 12705000: uvm_test_top.env.agent.sequencer@@wr_rd_seq [apb_wr_rd_seq] WRITE: ADDR=0x000004d0 DATA=0x8ca7e666
# UVM_INFO ../env/apb_agent/apb_monitor.sv(71) @ 12775000: uvm_test_top.env.agent.monitor [apb_monitor] Collected: T#0 | UNKNOWN_SEQ | ADDR=0x000004d0 WRITE=0 DATA=0xdeadbeef RDATA=0xdeadbeef SLVERR=1 | WAIT=3 cycles
# UVM_WARNING ../env/apb_scoreboard.sv(51) @ 12775000: uvm_test_top.env.scoreboard [apb_scoreboard] T#176 [SLVERR] ADDR=0x000004d0
# UVM_INFO ../seq/apb_wr_rd_seq.sv(56) @ 12775000: uvm_test_top.env.agent.sequencer@@wr_rd_seq [apb_wr_rd_seq] READ : ADDR=0x000004d0 RDATA=0xdeadbeef
# UVM_INFO ../env/apb_agent/apb_monitor.sv(71) @ 12835000: uvm_test_top.env.agent.monitor [apb_monitor] Collected: T#0 | UNKNOWN_SEQ | ADDR=0x00000318 WRITE=1 DATA=0xaaf68faf RDATA=0xdeadbeef SLVERR=0 | WAIT=2 cycles
# UVM_INFO ../seq/apb_wr_rd_seq.sv(41) @ 12835000: uvm_test_top.env.agent.sequencer@@wr_rd_seq [apb_wr_rd_seq] WRITE: ADDR=0x00000318 DATA=0xaaf68faf
# UVM_INFO ../env/apb_agent/apb_monitor.sv(71) @ 12895000: uvm_test_top.env.agent.monitor [apb_monitor] Collected: T#0 | UNKNOWN_SEQ | ADDR=0x00000318 WRITE=0 DATA=0xaaf68faf RDATA=0xaaf68faf SLVERR=0 | WAIT=2 cycles
# UVM_INFO ../env/apb_scoreboard.sv(73) @ 12895000: uvm_test_top.env.scoreboard [apb_scoreboard] T#178 [READ PASS] ADDR=0x00000318 RDATA=0xaaf68faf
# UVM_INFO ../seq/apb_wr_rd_seq.sv(56) @ 12895000: uvm_test_top.env.agent.sequencer@@wr_rd_seq [apb_wr_rd_seq] READ : ADDR=0x00000318 RDATA=0xaaf68faf
# UVM_INFO ../env/apb_agent/apb_monitor.sv(71) @ 12945000: uvm_test_top.env.agent.monitor [apb_monitor] Collected: T#0 | UNKNOWN_SEQ | ADDR=0x00000008 WRITE=1 DATA=0x2617f100 RDATA=0xaaf68faf SLVERR=0 | WAIT=1 cycles
# UVM_INFO ../seq/apb_wr_rd_seq.sv(41) @ 12945000: uvm_test_top.env.agent.sequencer@@wr_rd_seq [apb_wr_rd_seq] WRITE: ADDR=0x00000008 DATA=0x2617f100
# UVM_INFO ../env/apb_agent/apb_monitor.sv(71) @ 13055000: uvm_test_top.env.agent.monitor [apb_monitor] Collected: T#0 | UNKNOWN_SEQ | ADDR=0x00000008 WRITE=0 DATA=0x2617f100 RDATA=0x2617f100 SLVERR=0 | WAIT=7 cycles
# UVM_INFO ../env/apb_scoreboard.sv(73) @ 13055000: uvm_test_top.env.scoreboard [apb_scoreboard] T#180 [READ PASS] ADDR=0x00000008 RDATA=0x2617f100
# UVM_INFO ../seq/apb_wr_rd_seq.sv(56) @ 13055000: uvm_test_top.env.agent.sequencer@@wr_rd_seq [apb_wr_rd_seq] READ : ADDR=0x00000008 RDATA=0x2617f100
# UVM_INFO ../env/apb_agent/apb_monitor.sv(71) @ 13095000: uvm_test_top.env.agent.monitor [apb_monitor] Collected: T#0 | UNKNOWN_SEQ | ADDR=0x00000178 WRITE=1 DATA=0xef5f5f73 RDATA=0x2617f100 SLVERR=0 | WAIT=0 cycles
# UVM_INFO ../seq/apb_wr_rd_seq.sv(41) @ 13095000: uvm_test_top.env.agent.sequencer@@wr_rd_seq [apb_wr_rd_seq] WRITE: ADDR=0x00000178 DATA=0xef5f5f73
# UVM_INFO ../env/apb_agent/apb_monitor.sv(71) @ 13155000: uvm_test_top.env.agent.monitor [apb_monitor] Collected: T#0 | UNKNOWN_SEQ | ADDR=0x00000178 WRITE=0 DATA=0xef5f5f73 RDATA=0xef5f5f73 SLVERR=0 | WAIT=2 cycles
# UVM_INFO ../env/apb_scoreboard.sv(73) @ 13155000: uvm_test_top.env.scoreboard [apb_scoreboard] T#182 [READ PASS] ADDR=0x00000178 RDATA=0xef5f5f73
# UVM_INFO ../seq/apb_wr_rd_seq.sv(56) @ 13155000: uvm_test_top.env.agent.sequencer@@wr_rd_seq [apb_wr_rd_seq] READ : ADDR=0x00000178 RDATA=0xef5f5f73
# UVM_INFO ../env/apb_agent/apb_monitor.sv(71) @ 13205000: uvm_test_top.env.agent.monitor [apb_monitor] Collected: T#0 | UNKNOWN_SEQ | ADDR=0x00000410 WRITE=1 DATA=0xf217d49a RDATA=0xdeadbeef SLVERR=1 | WAIT=1 cycles
# UVM_WARNING ../env/apb_scoreboard.sv(51) @ 13205000: uvm_test_top.env.scoreboard [apb_scoreboard] T#183 [SLVERR] ADDR=0x00000410
# UVM_INFO ../seq/apb_wr_rd_seq.sv(41) @ 13205000: uvm_test_top.env.agent.sequencer@@wr_rd_seq [apb_wr_rd_seq] WRITE: ADDR=0x00000410 DATA=0xf217d49a
# UVM_INFO ../env/apb_agent/apb_monitor.sv(71) @ 13245000: uvm_test_top.env.agent.monitor [apb_monitor] Collected: T#0 | UNKNOWN_SEQ | ADDR=0x00000410 WRITE=0 DATA=0xdeadbeef RDATA=0xdeadbeef SLVERR=1 | WAIT=0 cycles
# UVM_WARNING ../env/apb_scoreboard.sv(51) @ 13245000: uvm_test_top.env.scoreboard [apb_scoreboard] T#184 [SLVERR] ADDR=0x00000410
# UVM_INFO ../seq/apb_wr_rd_seq.sv(56) @ 13245000: uvm_test_top.env.agent.sequencer@@wr_rd_seq [apb_wr_rd_seq] READ : ADDR=0x00000410 RDATA=0xdeadbeef
# UVM_INFO ../env/apb_agent/apb_monitor.sv(71) @ 13345000: uvm_test_top.env.agent.monitor [apb_monitor] Collected: T#0 | UNKNOWN_SEQ | ADDR=0x000004fc WRITE=1 DATA=0xdb84f269 RDATA=0xdeadbeef SLVERR=1 | WAIT=6 cycles
# UVM_WARNING ../env/apb_scoreboard.sv(51) @ 13345000: uvm_test_top.env.scoreboard [apb_scoreboard] T#185 [SLVERR] ADDR=0x000004fc
# UVM_INFO ../seq/apb_wr_rd_seq.sv(41) @ 13345000: uvm_test_top.env.agent.sequencer@@wr_rd_seq [apb_wr_rd_seq] WRITE: ADDR=0x000004fc DATA=0xdb84f269
# UVM_INFO ../env/apb_agent/apb_monitor.sv(71) @ 13405000: uvm_test_top.env.agent.monitor [apb_monitor] Collected: T#0 | UNKNOWN_SEQ | ADDR=0x000004fc WRITE=0 DATA=0xdeadbeef RDATA=0xdeadbeef SLVERR=1 | WAIT=2 cycles
# UVM_WARNING ../env/apb_scoreboard.sv(51) @ 13405000: uvm_test_top.env.scoreboard [apb_scoreboard] T#186 [SLVERR] ADDR=0x000004fc
# UVM_INFO ../seq/apb_wr_rd_seq.sv(56) @ 13405000: uvm_test_top.env.agent.sequencer@@wr_rd_seq [apb_wr_rd_seq] READ : ADDR=0x000004fc RDATA=0xdeadbeef
# UVM_INFO ../env/apb_agent/apb_monitor.sv(71) @ 13505000: uvm_test_top.env.agent.monitor [apb_monitor] Collected: T#0 | UNKNOWN_SEQ | ADDR=0x000003c8 WRITE=1 DATA=0x8c7b45ff RDATA=0xdeadbeef SLVERR=0 | WAIT=6 cycles
# UVM_INFO ../seq/apb_wr_rd_seq.sv(41) @ 13505000: uvm_test_top.env.agent.sequencer@@wr_rd_seq [apb_wr_rd_seq] WRITE: ADDR=0x000003c8 DATA=0x8c7b45ff
# UVM_INFO ../env/apb_agent/apb_monitor.sv(71) @ 13545000: uvm_test_top.env.agent.monitor [apb_monitor] Collected: T#0 | UNKNOWN_SEQ | ADDR=0x000003c8 WRITE=0 DATA=0x8c7b45ff RDATA=0x8c7b45ff SLVERR=0 | WAIT=0 cycles
# UVM_INFO ../env/apb_scoreboard.sv(73) @ 13545000: uvm_test_top.env.scoreboard [apb_scoreboard] T#188 [READ PASS] ADDR=0x000003c8 RDATA=0x8c7b45ff
# UVM_INFO ../seq/apb_wr_rd_seq.sv(56) @ 13545000: uvm_test_top.env.agent.sequencer@@wr_rd_seq [apb_wr_rd_seq] READ : ADDR=0x000003c8 RDATA=0x8c7b45ff
# UVM_INFO ../env/apb_agent/apb_monitor.sv(71) @ 13585000: uvm_test_top.env.agent.monitor [apb_monitor] Collected: T#0 | UNKNOWN_SEQ | ADDR=0x00000154 WRITE=1 DATA=0xcab062e6 RDATA=0x8c7b45ff SLVERR=0 | WAIT=0 cycles
# UVM_INFO ../seq/apb_wr_rd_seq.sv(41) @ 13585000: uvm_test_top.env.agent.sequencer@@wr_rd_seq [apb_wr_rd_seq] WRITE: ADDR=0x00000154 DATA=0xcab062e6
# UVM_INFO ../env/apb_agent/apb_monitor.sv(71) @ 13645000: uvm_test_top.env.agent.monitor [apb_monitor] Collected: T#0 | UNKNOWN_SEQ | ADDR=0x00000154 WRITE=0 DATA=0xcab062e6 RDATA=0xcab062e6 SLVERR=0 | WAIT=2 cycles
# UVM_INFO ../env/apb_scoreboard.sv(73) @ 13645000: uvm_test_top.env.scoreboard [apb_scoreboard] T#190 [READ PASS] ADDR=0x00000154 RDATA=0xcab062e6
# UVM_INFO ../seq/apb_wr_rd_seq.sv(56) @ 13645000: uvm_test_top.env.agent.sequencer@@wr_rd_seq [apb_wr_rd_seq] READ : ADDR=0x00000154 RDATA=0xcab062e6
# UVM_INFO ../env/apb_agent/apb_monitor.sv(71) @ 13695000: uvm_test_top.env.agent.monitor [apb_monitor] Collected: T#0 | UNKNOWN_SEQ | ADDR=0x00000278 WRITE=1 DATA=0xe6782025 RDATA=0xcab062e6 SLVERR=0 | WAIT=1 cycles
# UVM_INFO ../seq/apb_wr_rd_seq.sv(41) @ 13695000: uvm_test_top.env.agent.sequencer@@wr_rd_seq [apb_wr_rd_seq] WRITE: ADDR=0x00000278 DATA=0xe6782025
# UVM_INFO ../env/apb_agent/apb_monitor.sv(71) @ 13745000: uvm_test_top.env.agent.monitor [apb_monitor] Collected: T#0 | UNKNOWN_SEQ | ADDR=0x00000278 WRITE=0 DATA=0xe6782025 RDATA=0xe6782025 SLVERR=0 | WAIT=1 cycles
# UVM_INFO ../env/apb_scoreboard.sv(73) @ 13745000: uvm_test_top.env.scoreboard [apb_scoreboard] T#192 [READ PASS] ADDR=0x00000278 RDATA=0xe6782025
# UVM_INFO ../seq/apb_wr_rd_seq.sv(56) @ 13745000: uvm_test_top.env.agent.sequencer@@wr_rd_seq [apb_wr_rd_seq] READ : ADDR=0x00000278 RDATA=0xe6782025
# UVM_INFO ../env/apb_agent/apb_monitor.sv(71) @ 13785000: uvm_test_top.env.agent.monitor [apb_monitor] Collected: T#0 | UNKNOWN_SEQ | ADDR=0x000000b0 WRITE=1 DATA=0xdc627a48 RDATA=0xe6782025 SLVERR=0 | WAIT=0 cycles
# UVM_INFO ../seq/apb_write_seq.sv(34) @ 13785000: uvm_test_top.env.agent.sequencer@@write_seq [apb_write_seq] TASK WRITE: Sent Write: ADDR = 0x000000b0, DATA = 0xdc627a48
# UVM_INFO ../env/apb_agent/apb_monitor.sv(71) @ 13855000: uvm_test_top.env.agent.monitor [apb_monitor] Collected: T#0 | UNKNOWN_SEQ | ADDR=0x00000308 WRITE=1 DATA=0x102b8d64 RDATA=0xe6782025 SLVERR=0 | WAIT=3 cycles
# UVM_INFO ../seq/apb_write_seq.sv(34) @ 13855000: uvm_test_top.env.agent.sequencer@@write_seq [apb_write_seq] TASK WRITE: Sent Write: ADDR = 0x00000308, DATA = 0x102b8d64
# UVM_INFO ../env/apb_agent/apb_monitor.sv(71) @ 13905000: uvm_test_top.env.agent.monitor [apb_monitor] Collected: T#0 | UNKNOWN_SEQ | ADDR=0x000001a4 WRITE=1 DATA=0xbc9ade1d RDATA=0xe6782025 SLVERR=0 | WAIT=1 cycles
# UVM_INFO ../seq/apb_write_seq.sv(34) @ 13905000: uvm_test_top.env.agent.sequencer@@write_seq [apb_write_seq] TASK WRITE: Sent Write: ADDR = 0x000001a4, DATA = 0xbc9ade1d
# UVM_INFO ../env/apb_agent/apb_monitor.sv(71) @ 13945000: uvm_test_top.env.agent.monitor [apb_monitor] Collected: T#0 | UNKNOWN_SEQ | ADDR=0x00000464 WRITE=1 DATA=0xcf036355 RDATA=0xdeadbeef SLVERR=1 | WAIT=0 cycles
# UVM_WARNING ../env/apb_scoreboard.sv(51) @ 13945000: uvm_test_top.env.scoreboard [apb_scoreboard] T#196 [SLVERR] ADDR=0x00000464
# UVM_INFO ../seq/apb_write_seq.sv(34) @ 13945000: uvm_test_top.env.agent.sequencer@@write_seq [apb_write_seq] TASK WRITE: Sent Write: ADDR = 0x00000464, DATA = 0xcf036355
# UVM_INFO ../env/apb_agent/apb_monitor.sv(71) @ 13985000: uvm_test_top.env.agent.monitor [apb_monitor] Collected: T#0 | UNKNOWN_SEQ | ADDR=0x000000a4 WRITE=1 DATA=0x52e091a1 RDATA=0xdeadbeef SLVERR=0 | WAIT=0 cycles
# UVM_INFO ../seq/apb_write_seq.sv(34) @ 13985000: uvm_test_top.env.agent.sequencer@@write_seq [apb_write_seq] TASK WRITE: Sent Write: ADDR = 0x000000a4, DATA = 0x52e091a1
# UVM_INFO ../env/apb_agent/apb_monitor.sv(71) @ 14045000: uvm_test_top.env.agent.monitor [apb_monitor] Collected: T#0 | UNKNOWN_SEQ | ADDR=0x0000011c WRITE=1 DATA=0x25ad0d40 RDATA=0xdeadbeef SLVERR=0 | WAIT=2 cycles
# UVM_INFO ../seq/apb_write_seq.sv(34) @ 14045000: uvm_test_top.env.agent.sequencer@@write_seq [apb_write_seq] TASK WRITE: Sent Write: ADDR = 0x0000011c, DATA = 0x25ad0d40
# UVM_INFO ../env/apb_agent/apb_monitor.sv(71) @ 14115000: uvm_test_top.env.agent.monitor [apb_monitor] Collected: T#0 | UNKNOWN_SEQ | ADDR=0x00000494 WRITE=1 DATA=0x3f3add51 RDATA=0xdeadbeef SLVERR=1 | WAIT=3 cycles
# UVM_WARNING ../env/apb_scoreboard.sv(51) @ 14115000: uvm_test_top.env.scoreboard [apb_scoreboard] T#199 [SLVERR] ADDR=0x00000494
# UVM_INFO ../seq/apb_write_seq.sv(34) @ 14115000: uvm_test_top.env.agent.sequencer@@write_seq [apb_write_seq] TASK WRITE: Sent Write: ADDR = 0x00000494, DATA = 0x3f3add51
# UVM_INFO ../env/apb_agent/apb_monitor.sv(71) @ 14215000: uvm_test_top.env.agent.monitor [apb_monitor] Collected: T#0 | UNKNOWN_SEQ | ADDR=0x00000174 WRITE=1 DATA=0x7347d2e0 RDATA=0xdeadbeef SLVERR=0 | WAIT=6 cycles
# UVM_INFO ../seq/apb_write_seq.sv(34) @ 14215000: uvm_test_top.env.agent.sequencer@@write_seq [apb_write_seq] TASK WRITE: Sent Write: ADDR = 0x00000174, DATA = 0x7347d2e0
# UVM_INFO ../env/apb_agent/apb_monitor.sv(71) @ 14285000: uvm_test_top.env.agent.monitor [apb_monitor] Collected: T#0 | UNKNOWN_SEQ | ADDR=0x000000b0 WRITE=1 DATA=0xb3a13c96 RDATA=0xdeadbeef SLVERR=0 | WAIT=3 cycles
# UVM_INFO ../seq/apb_write_seq.sv(34) @ 14285000: uvm_test_top.env.agent.sequencer@@write_seq [apb_write_seq] TASK WRITE: Sent Write: ADDR = 0x000000b0, DATA = 0xb3a13c96
# UVM_INFO ../env/apb_agent/apb_monitor.sv(71) @ 14365000: uvm_test_top.env.agent.monitor [apb_monitor] Collected: T#0 | UNKNOWN_SEQ | ADDR=0x00000414 WRITE=1 DATA=0xc2659436 RDATA=0xdeadbeef SLVERR=1 | WAIT=4 cycles
# UVM_WARNING ../env/apb_scoreboard.sv(51) @ 14365000: uvm_test_top.env.scoreboard [apb_scoreboard] T#202 [SLVERR] ADDR=0x00000414
# UVM_INFO ../seq/apb_write_seq.sv(34) @ 14365000: uvm_test_top.env.agent.sequencer@@write_seq [apb_write_seq] TASK WRITE: Sent Write: ADDR = 0x00000414, DATA = 0xc2659436
# UVM_INFO ../env/apb_agent/apb_monitor.sv(71) @ 14455000: uvm_test_top.env.agent.monitor [apb_monitor] Collected: T#0 | UNKNOWN_SEQ | ADDR=0x00000328 WRITE=1 DATA=0x1edeb8e9 RDATA=0xdeadbeef SLVERR=0 | WAIT=5 cycles
# UVM_INFO ../seq/apb_write_seq.sv(34) @ 14455000: uvm_test_top.env.agent.sequencer@@write_seq [apb_write_seq] TASK WRITE: Sent Write: ADDR = 0x00000328, DATA = 0x1edeb8e9
# UVM_INFO ../env/apb_agent/apb_monitor.sv(71) @ 14555000: uvm_test_top.env.agent.monitor [apb_monitor] Collected: T#0 | UNKNOWN_SEQ | ADDR=0x00000248 WRITE=1 DATA=0xaab7bfc2 RDATA=0xdeadbeef SLVERR=0 | WAIT=6 cycles
# UVM_INFO ../seq/apb_write_seq.sv(34) @ 14555000: uvm_test_top.env.agent.sequencer@@write_seq [apb_write_seq] TASK WRITE: Sent Write: ADDR = 0x00000248, DATA = 0xaab7bfc2
# UVM_INFO ../env/apb_agent/apb_monitor.sv(71) @ 14645000: uvm_test_top.env.agent.monitor [apb_monitor] Collected: T#0 | UNKNOWN_SEQ | ADDR=0x00000170 WRITE=1 DATA=0x8c5d066c RDATA=0xdeadbeef SLVERR=0 | WAIT=5 cycles
# UVM_INFO ../seq/apb_write_seq.sv(34) @ 14645000: uvm_test_top.env.agent.sequencer@@write_seq [apb_write_seq] TASK WRITE: Sent Write: ADDR = 0x00000170, DATA = 0x8c5d066c
# UVM_INFO ../env/apb_agent/apb_monitor.sv(71) @ 14685000: uvm_test_top.env.agent.monitor [apb_monitor] Collected: T#0 | UNKNOWN_SEQ | ADDR=0x000004b4 WRITE=1 DATA=0x61d134ee RDATA=0xdeadbeef SLVERR=1 | WAIT=0 cycles
# UVM_WARNING ../env/apb_scoreboard.sv(51) @ 14685000: uvm_test_top.env.scoreboard [apb_scoreboard] T#206 [SLVERR] ADDR=0x000004b4
# UVM_INFO ../seq/apb_write_seq.sv(34) @ 14685000: uvm_test_top.env.agent.sequencer@@write_seq [apb_write_seq] TASK WRITE: Sent Write: ADDR = 0x000004b4, DATA = 0x61d134ee
# UVM_INFO ../env/apb_agent/apb_monitor.sv(71) @ 14795000: uvm_test_top.env.agent.monitor [apb_monitor] Collected: T#0 | UNKNOWN_SEQ | ADDR=0x00000234 WRITE=1 DATA=0x2bb43be8 RDATA=0xdeadbeef SLVERR=0 | WAIT=7 cycles
# UVM_INFO ../seq/apb_write_seq.sv(34) @ 14795000: uvm_test_top.env.agent.sequencer@@write_seq [apb_write_seq] TASK WRITE: Sent Write: ADDR = 0x00000234, DATA = 0x2bb43be8
# UVM_INFO ../env/apb_agent/apb_monitor.sv(71) @ 14905000: uvm_test_top.env.agent.monitor [apb_monitor] Collected: T#0 | UNKNOWN_SEQ | ADDR=0x000002b0 WRITE=1 DATA=0xbaea977f RDATA=0xdeadbeef SLVERR=0 | WAIT=7 cycles
# UVM_INFO ../seq/apb_write_seq.sv(34) @ 14905000: uvm_test_top.env.agent.sequencer@@write_seq [apb_write_seq] TASK WRITE: Sent Write: ADDR = 0x000002b0, DATA = 0xbaea977f
# UVM_INFO ../env/apb_agent/apb_monitor.sv(71) @ 15005000: uvm_test_top.env.agent.monitor [apb_monitor] Collected: T#0 | UNKNOWN_SEQ | ADDR=0x0000027c WRITE=0 DATA=0x00000000 RDATA=0x00000000 SLVERR=0 | WAIT=6 cycles
# UVM_INFO ../env/apb_scoreboard.sv(73) @ 15005000: uvm_test_top.env.scoreboard [apb_scoreboard] T#209 [READ PASS] ADDR=0x0000027c RDATA=0x00000000
# UVM_INFO ../seq/apb_read_seq.sv(38) @ 15005000: uvm_test_top.env.agent.sequencer@@read_seq [apb_read_seq] TASK READ DATA : Sent Read: ADDR=0x0000027c
# UVM_INFO ../env/apb_agent/apb_monitor.sv(71) @ 15095000: uvm_test_top.env.agent.monitor [apb_monitor] Collected: T#0 | UNKNOWN_SEQ | ADDR=0x00000160 WRITE=0 DATA=0x00000000 RDATA=0x00000000 SLVERR=0 | WAIT=5 cycles
# UVM_INFO ../env/apb_scoreboard.sv(73) @ 15095000: uvm_test_top.env.scoreboard [apb_scoreboard] T#210 [READ PASS] ADDR=0x00000160 RDATA=0x00000000
# UVM_INFO ../seq/apb_read_seq.sv(38) @ 15095000: uvm_test_top.env.agent.sequencer@@read_seq [apb_read_seq] TASK READ DATA : Sent Read: ADDR=0x00000160
# UVM_INFO ../env/apb_agent/apb_monitor.sv(71) @ 15175000: uvm_test_top.env.agent.monitor [apb_monitor] Collected: T#0 | UNKNOWN_SEQ | ADDR=0x00000188 WRITE=0 DATA=0x00000000 RDATA=0x00000000 SLVERR=0 | WAIT=4 cycles
# UVM_INFO ../env/apb_scoreboard.sv(73) @ 15175000: uvm_test_top.env.scoreboard [apb_scoreboard] T#211 [READ PASS] ADDR=0x00000188 RDATA=0x00000000
# UVM_INFO ../seq/apb_read_seq.sv(38) @ 15175000: uvm_test_top.env.agent.sequencer@@read_seq [apb_read_seq] TASK READ DATA : Sent Read: ADDR=0x00000188
# UVM_INFO ../env/apb_agent/apb_monitor.sv(71) @ 15285000: uvm_test_top.env.agent.monitor [apb_monitor] Collected: T#0 | UNKNOWN_SEQ | ADDR=0x000001a4 WRITE=0 DATA=0xbc9ade1d RDATA=0xbc9ade1d SLVERR=0 | WAIT=7 cycles
# UVM_INFO ../env/apb_scoreboard.sv(73) @ 15285000: uvm_test_top.env.scoreboard [apb_scoreboard] T#212 [READ PASS] ADDR=0x000001a4 RDATA=0xbc9ade1d
# UVM_INFO ../seq/apb_read_seq.sv(38) @ 15285000: uvm_test_top.env.agent.sequencer@@read_seq [apb_read_seq] TASK READ DATA : Sent Read: ADDR=0x000001a4
